 time            time            v(n1)           v(n2)           v(n3)           i(L1)           i(L2)           i(L3)
 3.55113636e-07  3.55113636e-07  5.84890510e-11  1.63064735e-13  6.48534202e-16  1.58743908e-15 -9.41969217e-19  5.63909086e-20
 3.57258536e-07  3.57258536e-07  5.88466083e-11  1.64059851e-13  6.52630308e-16  1.59708589e-15 -9.47694067e-19  5.67336598e-20
 3.61548335e-07  3.61548335e-07  5.95720889e-11  1.66078980e-13  6.60791885e-16  1.61652222e-15 -9.59229752e-19  5.74243062e-20
 3.70127933e-07  3.70127933e-07  6.10735493e-11  1.70257590e-13  6.77836353e-16  1.65609977e-15 -9.82725959e-19  5.88311832e-20
 3.87287128e-07  3.87287128e-07  6.42916333e-11  1.79215350e-13  7.12810411e-16  1.73835101e-15 -1.03158191e-18  6.17538369e-20
 4.21605520e-07  4.21605520e-07  7.16464980e-11  1.99692527e-13  7.93817591e-16  1.91690509e-15 -1.13773622e-18  6.80953627e-20
 4.90242302e-07  4.90242302e-07  9.04575397e-11  2.52082765e-13  1.00251236e-15  2.34446219e-15 -1.39225627e-18  8.32813948e-20
 5.75509748e-07  5.75509748e-07  1.22524547e-10  3.41431195e-13  1.35694978e-15  3.04763547e-15 -1.81116280e-18  1.08246312e-19
 6.67359448e-07  6.67359448e-07  1.69503381e-10  4.72372532e-13  1.87768847e-15  4.08986307e-15 -2.43193983e-18  1.45249278e-19
 7.58414752e-07  7.58414752e-07  2.30652333e-10  6.42855427e-13  2.55581064e-15  5.50493005e-15 -3.27410973e-18  1.95496324e-19
 8.49933736e-07  8.49933736e-07  3.08690564e-10  8.60470747e-13  3.42091928e-15  7.41806568e-15 -4.41147683e-18  2.63431310e-19
 9.39881111e-07  9.39881111e-07  4.03494356e-10  1.12488182e-12  4.47242688e-15  9.89578095e-15 -5.88281143e-18  3.51420319e-19
 1.03030647e-06  1.03030647e-06  5.18826091e-10  1.44658998e-12  5.75243227e-15  1.31158645e-14 -7.79285425e-18  4.65788125e-19
 1.12104242e-06  1.12104242e-06  6.56678977e-10  1.83116436e-12  7.28248283e-15  1.72283733e-14 -1.02296686e-17  6.11869383e-19
 1.21272250e-06  1.21272250e-06  8.20468435e-10  2.28814040e-12  9.10106984e-15  2.24443069e-14 -1.33172533e-17  7.97169528e-19
 1.30546492e-06  1.30546492e-06  1.01326772e-09  2.82610144e-12  1.12427079e-14  2.89887929e-14 -1.71877399e-17  1.02970368e-18
 1.39941915e-06  1.39941915e-06  1.23851980e-09  3.45466402e-12  1.37452562e-14  3.71245430e-14 -2.19952562e-17  1.31882002e-18
 1.49701524e-06  1.49701524e-06  1.50673986e-09  4.20318242e-12  1.67249967e-14  4.74224803e-14 -2.80756111e-17  1.68481280e-18
 1.60223614e-06  1.60223614e-06  1.83780482e-09  5.12714331e-12  2.04036556e-14  6.09458422e-14 -3.60542752e-17  2.16548849e-18
 1.71364661e-06  1.71364661e-06  2.23903885e-09  6.24700938e-12  2.48625669e-14  7.83990301e-14 -4.63438582e-17  2.78590699e-18
 1.83391434e-06  1.83391434e-06  2.73481488e-09  7.63083083e-12  3.03736655e-14  1.01385021e-13 -5.98855983e-17  3.60309373e-18
 1.96169951e-06  1.96169951e-06  3.33781000e-09  9.31402369e-12  3.70768974e-14  1.31203503e-13 -7.74403964e-17  4.66328951e-18
 2.09908657e-06  2.09908657e-06  4.07986880e-09  1.13855137e-11  4.53261916e-14  1.70363618e-13 -1.00479412e-16  6.05573554e-18
 2.24535505e-06  2.24535505e-06  4.98411225e-09  1.39098858e-11  5.53795108e-14  2.21308841e-13 -1.30432635e-16  7.86735995e-18
 2.40226745e-06  2.40226745e-06  6.09427437e-09  1.70092818e-11  6.77238721e-14  2.88107331e-13 -1.69682362e-16  1.02428937e-17
 2.56960081e-06  2.56960081e-06  7.44910472e-09  2.07919430e-11  8.27900492e-14  3.75192323e-13 -2.20821397e-16  1.33400669e-17
 2.74890234e-06  2.74890234e-06  9.11031960e-09  2.54302521e-11  1.01265446e-13  4.89285979e-13 -2.87781829e-16  1.73980535e-17
 2.92592615e-06  2.92592615e-06  1.09770755e-08  3.06426958e-11  1.22027839e-13  6.25893155e-13 -3.67912076e-16  2.22570343e-17
 3.10118578e-06  3.10118578e-06  1.30611287e-08  3.64621300e-11  1.45208989e-13  7.87650166e-13 -4.62748507e-16  2.80108299e-17
 3.27215663e-06  3.27215663e-06  1.53337063e-08  4.28082346e-11  1.70489249e-13  9.73940356e-13 -5.71920454e-16  3.46375581e-17
 3.43943967e-06  3.43943967e-06  1.77988217e-08  4.96922357e-11  1.97914125e-13  1.18650981e-12 -6.96443071e-16  4.21993978e-17
 3.60346981e-06  3.60346981e-06  2.04598831e-08  5.71236695e-11  2.27520321e-13  1.42708486e-12 -8.37319506e-16  5.07577983e-17
 3.76483181e-06  3.76483181e-06  2.33245631e-08  6.51239823e-11  2.59393239e-13  1.69782641e-12 -9.95806895e-16  6.03896607e-17
 3.93309015e-06  3.93309015e-06  2.65846364e-08  7.42287932e-11  2.95667445e-13  2.01955964e-12 -1.18408200e-15  7.18359234e-17
 4.10699844e-06  4.10699844e-06  3.02602222e-08  8.44943571e-11  3.36567401e-13  2.39827501e-12 -1.40563050e-15  8.53098091e-17
 4.29007245e-06  4.29007245e-06  3.44807229e-08  9.62821610e-11  3.83534099e-13  2.85231434e-12 -1.67115764e-15  1.01464018e-16
 4.48048096e-06  4.48048096e-06  3.92694309e-08  1.09657355e-10  4.36826501e-13  3.39025582e-12 -1.98565020e-15  1.20603891e-16
 4.68029558e-06  4.68029558e-06  4.47518237e-08  1.24970511e-10  4.97841553e-13  4.03338886e-12 -2.36151892e-15  1.43487051e-16
 4.88831479e-06  4.88831479e-06  5.09787955e-08  1.42363910e-10  5.67147679e-13  4.79623773e-12 -2.80720993e-15  1.70630480e-16
 5.10614050e-06  5.10614050e-06  5.80926056e-08  1.62235057e-10  6.46327861e-13  5.70636565e-12 -3.33877640e-15  2.03015121e-16
 5.33313239e-06  5.33313239e-06  6.61802652e-08  1.84827166e-10  7.36352736e-13  6.78697234e-12 -3.96970773e-15  2.41466729e-16
 5.57058008e-06  5.57058008e-06  7.54099544e-08  2.10610224e-10  8.39095468e-13  8.07486585e-12 -4.72142226e-15  2.87295347e-16
 5.81821642e-06  5.81821642e-06  8.59111181e-08  2.39946057e-10  9.55997864e-13  9.60518621e-12 -5.61434296e-15  3.41751719e-16
 6.07710849e-06  6.07710849e-06  9.78877995e-08  2.73404933e-10  1.08933380e-12  1.14279747e-11 -6.67756278e-15  4.06616939e-16
 6.34725127e-06  6.34725127e-06  1.11521174e-07  3.11493301e-10  1.24112122e-12  1.35949859e-11 -7.94114251e-15  4.83733136e-16
 6.62956957e-06  6.62956957e-06  1.27064172e-07  3.54918139e-10  1.41417948e-12  1.61751832e-11 -9.44514047e-15  5.75554966e-16
 6.92425498e-06  6.92425498e-06  1.44762733e-07  4.04366983e-10  1.61124737e-12  1.92436326e-11 -1.12331259e-14  6.84754297e-16
 7.23215103e-06  7.23215103e-06  1.64935352e-07  4.60730174e-10  1.83587571e-12  2.28962823e-11 -1.33607814e-14  8.14746321e-16
 7.55360331e-06  7.55360331e-06  1.87910145e-07  5.24925054e-10  2.09171971e-12  2.72410248e-11 -1.58906783e-14  9.69371372e-16
 7.88941786e-06  7.88941786e-06  2.14092459e-07  5.98084887e-10  2.38329732e-12  3.24121932e-11 -1.89007021e-14  1.15341091e-15
 8.24006625e-06  8.24006625e-06  2.43915512e-07  6.81420980e-10  2.71543662e-12  3.85639979e-11 -2.24802062e-14  1.37235394e-15
 8.60634886e-06  8.60634886e-06  2.77898819e-07  7.76385966e-10  3.09392942e-12  4.58852795e-11 -2.67385708e-14  1.63292214e-15
 8.98884553e-06  8.98884553e-06  3.16610733e-07  8.84569178e-10  3.52510909e-12  5.45956860e-11 -3.18029417e-14  1.94293370e-15
 9.38837481e-06  9.38837481e-06  3.60720137e-07  1.00784115e-09  4.01643063e-12  6.49613792e-11 -3.78273225e-14  2.31186229e-15
 9.80561452e-06  9.80561452e-06  4.10969733e-07  1.14827902e-09  4.57617299e-12  7.72945332e-11 -4.49922279e-14  2.75081922e-15
 1.02414199e-05  1.02414199e-05  4.68223262e-07  1.30829858e-09  5.21396400e-12  9.19709218e-11 -5.35148384e-14  3.27317933e-15
 1.06965617e-05  1.06965617e-05  5.33448859e-07  1.49060783e-09  5.94059574e-12  1.09433618e-10 -6.36510663e-14  3.89471254e-15
 1.11719468e-05  1.11719468e-05  6.07764001e-07  1.69833271e-09  6.76852448e-12  1.30213719e-10 -7.57074899e-14  4.63432136e-15
 1.16684379e-05  1.16684379e-05  6.92428733e-07  1.93499827e-09  7.71179765e-12  1.54939549e-10 -9.00465654e-14  5.51436809e-15
 1.21870064e-05  1.21870064e-05  7.88890556e-07  2.20465428e-09  8.78654985e-12  1.84362253e-10 -1.07101324e-13  6.56158552e-15
 1.27286084e-05  1.27286084e-05  8.98787845e-07  2.51188500e-09  1.00110442e-11  2.19372381e-10 -1.27384793e-13  7.80766646e-15
 1.32942915e-05  1.32942915e-05  1.02399704e-06  2.86194122e-09  1.14061971e-11  2.61032772e-10 -1.51508818e-13  9.29043348e-15
 1.38851093e-05  1.38851093e-05  1.16664714e-06  3.26078105e-09  1.29957402e-11  3.10605226e-10 -1.80199219e-13  1.10547872e-14
 1.45021961e-05  1.45021961e-05  1.32917183e-06  3.71521601e-09  1.48067996e-11  3.69594055e-10 -2.14320639e-13  1.31542547e-14
 1.51467090e-05  1.51467090e-05  1.51433658e-06  4.23298703e-09  1.68701968e-11  4.39786718e-10 -2.54899608e-13  1.56524339e-14
 1.58198800e-05  1.58198800e-05  1.72529885e-06  4.82293316e-09  1.92211215e-11  5.23312788e-10 -3.03158081e-13  1.86250892e-14
 1.65229766e-05  1.65229766e-05  1.96565000e-06  5.49510941e-09  2.18995941e-11  6.22704075e-10 -3.60547493e-13  2.21622881e-14
 1.72573393e-05  1.72573393e-05  2.23948730e-06  6.26098856e-09  2.49512689e-11  7.40975705e-10 -4.28794729e-13  2.63712809e-14
 1.80243551e-05  1.80243551e-05  2.55147400e-06  7.13362986e-09  2.84280973e-11  8.81713591e-10 -5.09951542e-13  3.13796071e-14
 1.88254843e-05  1.88254843e-05  2.90692765e-06  8.12792691e-09  3.23893144e-11  1.04918708e-09 -6.06458200e-13  3.73390953e-14
 1.96622432e-05  1.96622432e-05  3.31190274e-06  9.26083977e-09  3.69023481e-11  1.24847494e-09 -7.21214448e-13  4.44303331e-14
 2.05362240e-05  2.05362240e-05  3.77330119e-06  1.05517052e-08  4.20440507e-11  1.48562293e-09 -8.57668234e-13  5.28682596e-14
 2.14490838e-05  2.14490838e-05  4.29898343e-06  1.20225487e-08  4.79019244e-11  1.76782417e-09 -1.01991693e-12  6.29085590e-14
 2.24025594e-05  2.24025594e-05  4.89790838e-06  1.36984781e-08  5.45756731e-11  2.10364058e-09 -1.21283152e-12  7.48555128e-14
 2.33984614e-05  2.33984614e-05  5.58028080e-06  1.56080975e-08  6.21788265e-11  2.50326005e-09 -1.44220042e-12  8.90711087e-14
 2.44386857e-05  2.44386857e-05  6.35773027e-06  1.77840108e-08  7.08407194e-11  2.97880866e-09 -1.71490373e-12  1.05986098e-13
 2.55252101e-05  2.55252101e-05  7.24350499e-06  2.02633668e-08  8.07086253e-11  3.54471650e-09 -2.03911699e-12  1.26112938e-13
 2.66601047e-05  2.66601047e-05  8.25270186e-06  2.30885067e-08  9.19502880e-11  4.21815860e-09 -2.42455611e-12  1.50061390e-13
 2.78438919e-05  2.78438919e-05  9.40085938e-06  2.63030281e-08  1.04738215e-10  5.01838975e-09 -2.88208829e-12  1.78514752e-13
 2.90813322e-05  2.90813322e-05  1.07098862e-05  2.99683887e-08  1.19315653e-10  5.97129981e-09 -3.42632461e-12  2.12391681e-13
 3.03727363e-05  3.03727363e-05  1.21998585e-05  3.41409457e-08  1.35905167e-10  7.10414872e-09 -4.07259546e-12  2.52658786e-13
 3.17224155e-05  3.17224155e-05  1.38982267e-05  3.88977440e-08  1.54811089e-10  8.45285817e-09 -4.84109594e-12  3.00589583e-13
 3.31313906e-05  3.31313906e-05  1.58319160e-05  4.43144009e-08  1.76331450e-10  1.00567271e-08 -5.75384761e-12  3.57576307e-13
 3.46036240e-05  3.46036240e-05  1.80355312e-05  5.04880977e-08  2.00849182e-10  1.19657733e-08 -6.83885223e-12  4.25390350e-13
 3.55113636e-05  3.55113636e-05  1.94903500e-05  5.45644395e-08  2.17031952e-10  1.32690247e-08 -7.57878906e-12  4.71676179e-13
 3.56650847e-05  3.56650847e-05  1.97451112e-05  5.52783109e-08  2.19865481e-10  1.35008646e-08 -7.71035525e-12  4.79909375e-13
 3.59725269e-05  3.59725269e-05  2.02599137e-05  5.67208777e-08  2.25591037e-10  1.39717963e-08 -7.97755783e-12  4.96632750e-13
 3.65874112e-05  3.65874112e-05  2.13151331e-05  5.96779265e-08  2.37325855e-10  1.49491908e-08 -8.53189533e-12  5.31338433e-13
 3.74329891e-05  3.74329891e-05  2.28246730e-05  6.39084461e-08  2.54110230e-10  1.63756488e-08 -9.34037925e-12  5.81982752e-13
 3.90638215e-05  3.90638215e-05  2.59347150e-05  7.26255828e-08  2.88679641e-10  1.94157749e-08 -1.10614116e-11  6.89891126e-13
 4.06053212e-05  4.06053212e-05  2.91230059e-05  8.15635657e-08  3.24104121e-10  2.26629885e-08 -1.28969484e-11  8.05112558e-13
 4.25598244e-05  4.25598244e-05  3.35281449e-05  9.39151836e-08  3.73024447e-10  2.73495240e-08 -1.55416824e-11  9.71341966e-13
 4.43630723e-05  4.43630723e-05  3.79664248e-05  1.06362253e-07  4.22285025e-10  3.22847351e-08 -1.83218535e-11  1.14631741e-12
 4.64388439e-05  4.64388439e-05  4.35403062e-05  1.21997424e-07  4.84110580e-10  3.87612284e-08 -2.19635432e-11  1.37583038e-12
 4.84353180e-05  4.84353180e-05  4.93903726e-05  1.38410990e-07  5.48953861e-10  4.58633614e-08 -2.59493129e-11  1.62738520e-12
 5.06531416e-05  5.06531416e-05  5.64767360e-05  1.58297917e-07  6.27438702e-10  5.48505544e-08 -3.09827487e-11  1.94552744e-12
 5.28546869e-05  5.28546869e-05  6.41489012e-05  1.79834158e-07  7.12337057e-10  6.50151805e-08 -3.66634810e-11  2.30512595e-12
 5.52479113e-05  5.52479113e-05  7.32419437e-05  2.05365562e-07  8.12860094e-10  7.75997813e-08 -4.36808511e-11  2.75003080e-12
 5.76694061e-05  5.76694061e-05  8.32747855e-05  2.33543507e-07  9.23651819e-10  9.21051328e-08 -5.17501025e-11  3.26245250e-12
 6.02641098e-05  6.02641098e-05  9.49953259e-05  2.66471066e-07  1.05292387e-09  1.09807294e-07 -6.15731046e-11  3.88728494e-12
 6.29205170e-05  6.29205170e-05  1.08078730e-04  3.03238761e-07  1.19703348e-09  1.30451194e-07 -7.29982905e-11  4.61528459e-12
 6.57407236e-05  6.57407236e-05  1.23221520e-04  3.45807707e-07  1.36357737e-09  1.55412975e-07 -8.67747062e-11  5.49466555e-12
 6.86495687e-05  6.86495687e-05  1.40249595e-04  3.93692988e-07  1.55054574e-09  1.84738902e-07 -1.02912116e-10  6.52664725e-12
 7.17198020e-05  7.17198020e-05  1.59841839e-04  4.48809130e-07  1.76527359e-09  2.19992053e-07 -1.22250864e-10  7.76569765e-12
 7.49016365e-05  7.49016365e-05  1.81975918e-04  5.11099862e-07  2.00736611e-09  2.61604366e-07 -1.45003060e-10  9.22629848e-12
 7.82477352e-05  7.82477352e-05  2.07347620e-04  5.82531199e-07  2.28424548e-09  3.11443704e-07 -1.72158794e-10  1.09730979e-11
 8.17260872e-05  8.17260872e-05  2.36095206e-04  6.63501975e-07  2.59718429e-09  3.70451294e-07 -2.04191712e-10  1.30378933e-11
 8.53756982e-05  8.53756982e-05  2.68969046e-04  7.56137230e-07  2.95405497e-09  4.40962973e-07 -2.42320575e-10  1.55008655e-11
 8.91771100e-05  8.91771100e-05  3.06285829e-04  8.61343353e-07  3.35792428e-09  5.24608757e-07 -2.87364836e-10  1.84169245e-11
 9.31601535e-05  9.31601535e-05  3.48893538e-04  9.81527944e-07  3.81750532e-09  6.24420754e-07 -3.40879338e-10  2.18891330e-11
 9.73143464e-05  9.73143464e-05  3.97315640e-04  1.11818806e-06  4.33786272e-09  7.42976518e-07 -4.04147862e-10  2.60037147e-11
 1.01663484e-04  1.01663484e-04  4.52548697e-04  1.27416108e-06  4.92897862e-09  8.84325920e-07 -4.79207981e-10  3.08967359e-11
 1.06203628e-04  1.06203628e-04  5.15363978e-04  1.45165511e-06  5.59819774e-09  1.05236554e-06 -5.67972980e-10  3.66972370e-11
 1.10954755e-04  1.10954755e-04  5.86968683e-04  1.65411777e-06  6.35724512e-09  1.25261799e-06 -6.73163483e-10  4.35882342e-11
 1.15917841e-04  1.15917841e-04  6.68438528e-04  1.88463499e-06  7.21610441e-09  1.49083127e-06 -7.97550712e-10  5.17576067e-11
 1.21110635e-04  1.21110635e-04  7.61268452e-04  2.14749051e-06  8.18876382e-09  1.77464713e-06 -9.44811543e-10  6.14545040e-11
 1.26537960e-04  1.26537960e-04  8.66914839e-04  2.44687367e-06  9.28827227e-09  2.11242785e-06 -1.11888877e-09  7.29478117e-11
 1.32216512e-04  1.32216512e-04  9.87257488e-04  2.78819113e-06  1.05314369e-08  2.51485592e-06 -1.32478672e-09  8.65791071e-11
 1.38154305e-04  1.38154305e-04  1.12423447e-03  3.17703662e-06  1.19348418e-08  2.99400189e-06 -1.56804709e-09  1.02728735e-10
 1.44367880e-04  1.44367880e-04  1.28023392e-03  3.62030764e-06  1.35186729e-08  3.56490742e-06 -1.85550315e-09  1.21866547e-10
 1.50868091e-04  1.50868091e-04  1.45780824e-03  4.12540098e-06  1.53035124e-08  4.24492340e-06 -2.19487259e-09  1.44525843e-10
 1.57672064e-04  1.57672064e-04  1.66001184e-03  4.70118046e-06  1.73134238e-08  5.05534370e-06 -2.59548941e-09  1.71353247e-10
 1.64793382e-04  1.64793382e-04  1.89018469e-03  5.35737177e-06  1.95733494e-08  6.02106513e-06 -3.06801803e-09  2.03091003e-10
 1.72250420e-04  1.72250420e-04  2.15225026e-03  6.10542316e-06  2.21115440e-08  7.17236347e-06 -3.62518260e-09  2.40627452e-10
 1.80059593e-04  1.80059593e-04  2.45056151e-03  6.95808208e-06  2.49574059e-08  8.54495983e-06 -4.28160847e-09  2.84988372e-10
 1.88241191e-04  1.88241191e-04  2.79017214e-03  7.93018849e-06  2.81432950e-08  1.01820685e-05 -5.05456779e-09  3.37389586e-10
 1.96814764e-04  1.96814764e-04  3.17674088e-03  9.03842515e-06  3.17026136e-08  1.21350042e-05 -5.96395348e-09  3.99238115e-10
 2.05803262e-04  2.05803262e-04  3.61678868e-03  1.03020834e-05  3.56709806e-08  1.44656920e-05 -7.03305526e-09  4.72188350e-10
 2.15229922e-04  2.15229922e-04  4.11766002e-03  1.17429891e-05  4.00843387e-08  1.72480285e-05 -8.28866400e-09  5.58153591e-10
 2.25121263e-04  2.25121263e-04  4.68777895e-03  1.33862836e-05  4.49793725e-08  2.05711407e-05 -9.76187810e-09  6.59366700e-10
 2.35505070e-04  2.35505070e-04  5.33666917e-03  1.52605397e-05  5.03913452e-08  2.45418424e-05 -1.14883145e-08  7.78401819e-10
 2.46412642e-04  2.46412642e-04  6.07522294e-03  1.73986088e-05  5.63535280e-08  2.92890923e-05 -1.35089106e-08  9.18239057e-10
 2.57877615e-04  2.57877615e-04  6.91578546e-03  1.98379570e-05  6.28943497e-08  3.49681003e-05 -1.58701657e-08  1.08229417e-09
 2.69937791e-04  2.69937791e-04  7.87245309e-03  2.26216441e-05  7.00354310e-08  4.17667179e-05 -1.86248228e-08  1.27448376e-09
 2.82634657e-04  2.82634657e-04  8.96123270e-03  2.57989356e-05  7.77874379e-08  4.99121324e-05 -2.18319447e-08  1.49925626e-09
 2.96015099e-04  2.96015099e-04  1.02003904e-02  2.94265073e-05  8.61460586e-08  5.96804414e-05 -2.55571781e-08  1.76164763e-09
 3.10131625e-04  3.10131625e-04  1.16107050e-02  3.35694325e-05  9.50856507e-08  7.14075953e-05 -2.98721958e-08  2.06729782e-09
 3.25044319e-04  3.25044319e-04  1.32158981e-02  3.83027632e-05  1.04552108e-07  8.55044340e-05 -3.48538304e-08  2.42247369e-09
 3.40821994e-04  3.40821994e-04  1.50430173e-02  4.37130779e-05  1.14452911e-07  1.02475031e-04 -4.05817811e-08  2.83403619e-09
 3.57544955e-04  3.57544955e-04  1.71230025e-02  4.99007178e-05  1.24645197e-07  1.22941693e-04 -4.71349218e-08  3.30938015e-09
 3.75307765e-04  3.75307765e-04  1.94912723e-02  5.69822825e-05  1.34919989e-07  1.47677294e-04 -5.45846184e-08  3.85627803e-09
 3.94224040e-04  3.94224040e-04  2.21885474e-02  6.50941232e-05  1.44982591e-07  1.77650221e-04 -6.29840059e-08  4.48262813e-09
 4.14432706e-04  4.14432706e-04  2.52618293e-02  7.43979422e-05  1.54431839e-07  2.14086409e-04 -7.23477526e-08  5.19601550e-09
 4.36093909e-04  4.36093909e-04  2.87634497e-02  8.50772382e-05  1.62711750e-07  2.58529015e-04 -8.26176450e-08  6.00248222e-09
 4.59455451e-04  4.59455451e-04  3.27613144e-02  9.73734688e-05  1.69093430e-07  3.13080557e-04 -9.36374349e-08  6.90731839e-09
 4.81972982e-04  4.81972982e-04  3.68098130e-02  1.09939610e-04  1.72394824e-07  3.72493414e-04 -1.03825185e-07  7.79876520e-09
 5.05170064e-04  5.05170064e-04  4.11526572e-02  1.23551344e-04  1.72560374e-07  4.41025216e-04 -1.13399267e-07  8.71859417e-09
 5.27753398e-04  5.27753398e-04  4.55180242e-02  1.37377205e-04  1.69345346e-07  5.15135033e-04 -1.21305468e-07  9.59649401e-09
 5.50997785e-04  5.50997785e-04  5.01167023e-02  1.52106595e-04  1.62410674e-07  5.99234233e-04 -1.27372723e-07  1.04605158e-08
 5.74123211e-04  5.74123211e-04  5.47585854e-02  1.67157283e-04  1.51811356e-07  6.90911780e-04 -1.30655786e-07  1.12581867e-08
 5.98054728e-04  5.98054728e-04  5.95859544e-02  1.83020663e-04  1.37009627e-07  7.94263685e-04 -1.30382742e-07  1.19945009e-08
 6.22299120e-04  6.22299120e-04  6.44489898e-02  1.99240704e-04  1.18206937e-07  9.07739725e-04 -1.25441561e-07  1.26232388e-08
 6.47586026e-04  6.47586026e-04  6.94301933e-02  2.16134365e-04  9.48204471e-08  1.03536822e-03 -1.14302016e-07  1.31270978e-08
 6.73676267e-04  6.73676267e-04  7.44013130e-02  2.33317784e-04  6.71093653e-08  1.17669465e-03 -9.53209658e-08  1.34579457e-08
 7.01295339e-04  7.01295339e-04  7.93913311e-02  2.50953748e-04  3.44652537e-08  1.33647934e-03 -6.57265450e-08  1.35720606e-08
