 time            time            v(n1)           v(n2)           v(n3)           i(L1)           i(L2)           i(L3)
 3.55113636e-07  3.55113636e-07  5.85658984e-11  1.55198776e-17 -5.24019418e-21  1.58955084e-15 -9.34749136e-18  4.87677327e-20
 3.57255894e-07  3.57255894e-07  5.89234784e-11  1.56140742e-17 -5.27199803e-21  1.59919851e-15 -9.40422530e-18  4.90637250e-20
 3.61540408e-07  3.61540408e-07  5.96489922e-11  1.58038585e-17 -5.33606960e-21  1.61863639e-15 -9.51853144e-18  4.96600830e-20
 3.70109438e-07  3.70109438e-07  6.11504592e-11  1.61902930e-17 -5.46647298e-21  1.65821620e-15 -9.75128397e-18  5.08743996e-20
 3.87247496e-07  3.87247496e-07  6.43682937e-11  1.69932810e-17 -5.73693964e-21  1.74046801e-15 -1.02349730e-17  5.33979025e-20
 4.21523614e-07  4.21523614e-07  7.17214784e-11  1.87356593e-17 -6.31968669e-21  1.91900336e-15 -1.12848670e-17  5.88754117e-20
 4.90075848e-07  4.90075848e-07  9.05234239e-11  2.29023722e-17 -7.68183166e-21  2.34640653e-15 -1.37982594e-17  7.19883038e-20
 5.75274235e-07  5.75274235e-07  1.22581828e-10  2.97444504e-17 -9.83735756e-21  3.04941235e-15 -1.79323843e-17  9.35569338e-20
 6.67094482e-07  6.67094482e-07  1.69569233e-10  3.98748049e-17 -1.29273788e-20  4.09174796e-15 -2.40620113e-17  1.25536583e-19
 7.58096702e-07  7.58096702e-07  2.30712614e-10  5.36146839e-17 -1.70510984e-20  5.50644985e-15 -3.23814169e-17  1.68940838e-19
 8.49588895e-07  8.49588895e-07  3.08766155e-10  7.21956779e-17 -2.26330809e-20  7.41953173e-15 -4.36316337e-17  2.27635816e-19
 9.39476685e-07  9.39476685e-07  4.03552093e-10  9.62648218e-17 -2.99719733e-20  9.89610301e-15 -5.81955237e-17  3.03618948e-19
 1.02985110e-06  1.02985110e-06  5.18869468e-10  1.27580531e-16 -3.97648334e-20  1.31147659e-14 -7.71233472e-17  4.02369607e-19
 1.12052813e-06  1.12052813e-06  6.56689412e-10  1.67627887e-16 -5.27049427e-20  1.72248468e-14 -1.01293184e-16  5.28468822e-19
 1.21215036e-06  1.21215036e-06  8.20437935e-10  2.18507688e-16 -6.97795459e-20  2.24374885e-14 -1.31946608e-16  6.88393999e-19
 1.30483388e-06  1.30483388e-06  1.01318359e-09  2.82471464e-16 -9.21491693e-20  2.89775008e-14 -1.70405532e-16  8.89041625e-19
 1.39872888e-06  1.39872888e-06  1.23836930e-09  3.62159597e-16 -1.21252693e-19  3.71073915e-14 -2.18213521e-16  1.13846451e-18
 1.49628546e-06  1.49628546e-06  1.50657017e-09  4.63290095e-16 -1.59897167e-19  4.74001187e-14 -2.78739682e-16  1.45423952e-18
 1.60144865e-06  1.60144865e-06  1.83756433e-09  5.96432494e-16 -2.13281794e-19  6.09146233e-14 -3.58210801e-16  1.86885221e-18
 1.71281294e-06  1.71281294e-06  2.23876705e-09  7.68798875e-16 -2.85976911e-19  7.83586695e-14 -4.60788406e-16  2.40401298e-18
 1.83301752e-06  1.83301752e-06  2.73445056e-09  9.96525124e-16 -3.87222305e-19  1.01330030e-13 -5.95867380e-16  3.10873482e-18
 1.96074615e-06  1.96074615e-06  3.33738357e-09  1.29302376e-15 -5.26417703e-19  1.31131927e-13 -7.71110188e-16  4.02299166e-18
 2.09806291e-06  2.09806291e-06  4.07931533e-09  1.68389949e-15 -7.20453778e-19  1.70267476e-13 -1.00123453e-15  5.22356417e-18
 2.24426419e-06  2.24426419e-06  4.98345165e-09  2.19457666e-15 -9.88786735e-19  2.21183308e-13 -1.30062523e-15  6.78549473e-18
 2.40109782e-06  2.40109782e-06  6.09343570e-09  2.86718249e-15 -1.36317584e-18  2.87940328e-13 -1.69315830e-15  8.83333921e-18
 2.56835264e-06  2.56835264e-06  7.44809334e-09  3.74837101e-15 -1.88306449e-18  3.74973983e-13 -2.20491065e-15  1.15031322e-17
 2.74756530e-06  2.74756530e-06  9.10905348e-09  4.90887842e-15 -2.60908209e-18  4.88997279e-13 -2.87534919e-15  1.50007586e-17
 2.92451541e-06  2.92451541e-06  1.09756787e-08  6.30591181e-15 -3.53338254e-18  6.25531745e-13 -3.67813600e-15  1.91888024e-17
 3.09969879e-06  3.09969879e-06  1.30595612e-08  7.96879795e-15 -4.69211303e-18  7.87201156e-13 -4.62869350e-15  2.41477084e-17
 3.27059813e-06  3.27059813e-06  1.53320045e-08  9.89374792e-15 -6.09935165e-18  9.73395125e-13 -5.72342810e-15  2.98587168e-17
 3.43781028e-06  3.43781028e-06  1.77969747e-08  1.21012029e-14 -7.78631303e-18  1.18585531e-12 -6.97257525e-15  3.63752111e-17
 3.60177078e-06  3.60177078e-06  2.04578898e-08  1.46116685e-14 -9.78574237e-18  1.42630810e-12 -8.38628022e-15  4.37501031e-17
 3.76306386e-06  3.76306386e-06  2.33224171e-08  1.74504172e-14 -1.21358050e-17  1.69691296e-12 -9.97723390e-15  5.20495825e-17
 3.93124070e-06  3.93124070e-06  2.65821334e-08  2.08399817e-14 -1.50495409e-17  2.01846571e-12 -1.18676917e-14  6.19113915e-17
 4.10507087e-06  4.10507087e-06  3.02574472e-08  2.48500668e-14 -1.86280953e-17  2.39698206e-12 -1.40930086e-14  7.35199288e-17
 4.28805627e-06  4.28805627e-06  3.44774895e-08  2.96827418e-14 -2.31048740e-17  2.85076699e-12 -1.67607846e-14  8.74364524e-17
 4.47837791e-06  4.47837791e-06  3.92658104e-08  3.54398566e-14 -2.86406825e-17  3.38842190e-12 -1.99215667e-14  1.03924583e-16
 4.67809698e-06  4.67809698e-06  4.47476411e-08  4.23617043e-14 -3.55487148e-17  4.03119832e-12 -2.37002637e-14  1.23635829e-16
 4.88602042e-06  4.88602042e-06  5.09740854e-08  5.06206835e-14 -4.41023884e-17  4.79363768e-12 -2.81823292e-14  1.47015855e-16
 5.10374278e-06  5.10374278e-06  5.80871937e-08  6.05345658e-14 -5.47558879e-17  5.70326429e-12 -3.35295276e-14  1.74908361e-16
 5.33062948e-06  5.33062948e-06  6.61741460e-08  7.23806898e-14 -6.79617015e-17  6.78328780e-12 -3.98782468e-14  2.08024628e-16
 5.56796500e-06  5.56796500e-06  7.54029459e-08  8.65926256e-14 -8.43939045e-17  8.07047472e-12 -4.74445500e-14  2.47491491e-16
 5.81548608e-06  5.81548608e-06  8.59031721e-08  1.03596042e-13 -1.04780234e-16  9.59996625e-12 -5.64349261e-14  2.94385771e-16
 6.07425617e-06  6.07425617e-06  9.78787166e-08  1.23993563e-13 -1.30134025e-16  1.14217571e-11 -6.71431480e-14  3.50239482e-16
 6.34427287e-06  6.34427287e-06  1.11510858e-07  1.48422764e-13 -1.61606733e-16  1.35875919e-11 -7.98732422e-14  4.16638003e-16
 6.62645838e-06  6.62645838e-06  1.27052394e-07  1.77733258e-13 -2.00735819e-16  1.61663793e-11 -9.50300791e-14  4.95692559e-16
 6.92100600e-06  6.92100600e-06  1.44749342e-07  2.12867929e-13 -2.49326320e-16  1.92331605e-11 -1.13054524e-13  5.89701932e-16
 7.22875737e-06  7.22875737e-06  1.64920076e-07  2.55037054e-13 -3.09725629e-16  2.28838160e-11 -1.34509859e-13  7.01603143e-16
 7.55005916e-06  7.55005916e-06  1.87892764e-07  3.05625395e-13 -3.84747503e-16  2.72261942e-11 -1.60029620e-13  8.34699336e-16
 7.88571601e-06  7.88571601e-06  2.14072641e-07  3.66369660e-13 -4.77990651e-16  3.23945410e-11 -1.90402383e-13  9.93101852e-16
 8.23620012e-06  8.23620012e-06  2.43892952e-07  4.39296194e-13 -5.93825969e-16  3.85429959e-11 -2.26533506e-13  1.18153058e-15
 8.60231077e-06  8.60231077e-06  2.77873102e-07  5.26910328e-13 -7.37785015e-16  4.58602841e-11 -2.69531432e-13  1.40576390e-15
 8.98462815e-06  8.98462815e-06  3.16581449e-07  6.32172430e-13 -9.16642679e-16  5.45659456e-11 -3.20685478e-13  1.67252262e-15
 9.38396990e-06  9.38396990e-06  3.60686764e-07  7.58711066e-13 -1.13891574e-15  6.49259859e-11 -3.81557745e-13  1.98994901e-15
 9.80101395e-06  9.80101395e-06  4.10931723e-07  9.10849554e-13 -1.41509076e-15  7.72524195e-11 -4.53980354e-13  2.36759204e-15
 1.02366148e-05  1.02366148e-05  4.68179947e-07  1.09385995e-12 -1.75829472e-15  9.19208052e-11 -5.40158382e-13  2.81694371e-15
 1.06915431e-05  1.06915431e-05  5.33399520e-07  1.31405871e-12 -2.18474501e-15  1.09373984e-10 -6.42691696e-13  3.35155231e-15
 1.11667051e-05  1.11667051e-05  6.07707780e-07  1.57912617e-12 -2.71468795e-15  1.30142755e-10 -7.64696281e-13  3.98765432e-15
 1.16629633e-05  1.16629633e-05  6.92364688e-07  1.89829945e-12 -3.37318953e-15  1.54855106e-10 -9.09858261e-13  4.74445510e-15
 1.21812884e-05  1.21812884e-05  7.88817581e-07  2.28279358e-12 -4.19148953e-15  1.84261767e-10 -1.08258376e-12  5.64490899e-15
 1.27226363e-05  1.27226363e-05  8.98704708e-07  2.74613402e-12 -5.20831644e-15  2.19252808e-10 -1.28809610e-12  6.71622451e-15
 1.32880539e-05  1.32880539e-05  1.02390231e-06  3.30473277e-12 -6.47188513e-15  2.60890483e-10 -1.53262831e-12  7.99086585e-15
 1.38785944e-05  1.38785944e-05  1.16653921e-06  3.97842409e-12 -8.04201913e-15  3.10435910e-10 -1.82357934e-12  9.50736458e-15
 1.44953916e-05  1.44953916e-05  1.32904886e-06  4.79127469e-12 -9.99314366e-15  3.69392572e-10 -2.16976890e-12  1.13116447e-14
 1.51396020e-05  1.51396020e-05  1.51419648e-06  5.77241805e-12 -1.24176524e-14  4.39546962e-10 -2.58167534e-12  1.34582579e-14
 1.58124570e-05  1.58124570e-05  1.72513922e-06  6.95721656e-12 -1.54304389e-14  5.23027482e-10 -3.07178052e-12  1.60121757e-14
 1.65152236e-05  1.65152236e-05  1.96546813e-06  8.38853730e-12 -1.91741826e-14  6.22364568e-10 -3.65492151e-12  1.90506150e-14
 1.72492416e-05  1.72492416e-05  2.23928007e-06  1.01184424e-11 -2.38262573e-14  7.40571696e-10 -4.34876461e-12  2.26654984e-14
 1.80158974e-05  1.80158974e-05  2.55123788e-06  1.22101206e-11 -2.96069768e-14  8.81232827e-10 -5.17431660e-12  2.69661065e-14
 1.88166505e-05  1.88166505e-05  2.90665861e-06  1.47403700e-11 -3.67901745e-14  1.04861498e-09 -6.15658291e-12  3.20824911e-14
 1.96530166e-05  1.96530166e-05  3.31159619e-06  1.78025076e-11 -4.57160163e-14  1.24779413e-09 -7.32530339e-12  3.81692884e-14
 2.05265870e-05  2.05265870e-05  3.77295190e-06  2.15100400e-11 -5.68072464e-14  1.48481277e-09 -8.71587243e-12  4.54104852e-14
 2.14390181e-05  2.14390181e-05  4.29858543e-06  2.60010365e-11 -7.05890481e-14  1.76686006e-09 -1.03703912e-11  5.40248662e-14
 2.23920460e-05  2.23920460e-05  4.89745488e-06  3.14435834e-11 -8.77140364e-14  2.10249326e-09 -1.23389597e-11  6.42726989e-14
 2.33874804e-05  2.33874804e-05  5.57976406e-06  3.80423513e-11 -1.08992991e-13  2.50189471e-09 -1.46811759e-11  7.64634827e-14
 2.44272161e-05  2.44272161e-05  6.35714146e-06  4.60467305e-11 -1.35433347e-13  2.97718386e-09 -1.74679549e-11  9.09653483e-14
 2.55132302e-05  2.55132302e-05  7.24283405e-06  5.57606952e-11 -1.68286708e-13  3.54278289e-09 -2.07836594e-11  1.08216053e-13
 2.66475917e-05  2.66475917e-05  8.25193733e-06  6.75549757e-11 -2.09108158e-13  4.21585748e-09 -2.47286665e-11  1.28736216e-13
 2.78324609e-05  2.78324609e-05  9.40164909e-06  8.18818850e-11 -2.59829657e-13  5.01683623e-09 -2.94223903e-11  1.53144893e-13
 2.90700974e-05  2.90700974e-05  1.07115662e-05  9.92935782e-11 -3.22851489e-13  5.97003393e-09 -3.50069066e-11  1.82178227e-13
 3.03628620e-05  3.03628620e-05  1.22040160e-05  1.20464362e-10 -4.01155565e-13  7.10438900e-09 -4.16512381e-11  2.16711472e-13
 3.17132238e-05  3.17132238e-05  1.39044397e-05  1.46218147e-10 -4.98446446e-13  8.45434571e-09 -4.95564771e-11  2.57785296e-13
 3.31237631e-05  3.31237631e-05  1.58418247e-05  1.77562061e-10 -6.19326194e-13  1.00609005e-08 -5.89618551e-11  3.06636888e-13
 3.45971788e-05  3.45971788e-05  1.80492010e-05  2.15727803e-10 -7.69511836e-13  1.19728519e-08 -7.01519863e-11  3.64737038e-13
 3.55113636e-05  3.55113636e-05  1.95160164e-05  2.42423583e-10 -8.76146771e-13  1.32867685e-08 -7.78402459e-11  4.04643219e-13
 3.56652750e-05  3.56652750e-05  1.97714310e-05  2.47185010e-10 -8.95295025e-13  1.35192085e-08 -7.92002023e-11  4.11701121e-13
 3.59730977e-05  3.59730977e-05  2.02875606e-05  2.56884339e-10 -9.34391350e-13  1.39913684e-08 -8.19626040e-11  4.26036711e-13
 3.65887430e-05  3.65887430e-05  2.13455320e-05  2.77153205e-10 -1.01654317e-12  1.49713564e-08 -8.76955620e-11  4.55784447e-13
 3.74351860e-05  3.74351860e-05  2.28587483e-05  3.07057868e-10 -1.13881777e-12  1.64013844e-08 -9.60600050e-11  4.99177810e-13
 3.90683568e-05  3.90683568e-05  2.59778991e-05  3.72053594e-10 -1.40852240e-12  1.94507504e-08 -1.13891376e-10  5.91649789e-13
 4.06122190e-05  4.06122190e-05  2.91761986e-05  4.43130206e-10 -1.70860952e-12  2.27087020e-08 -1.32935925e-10  6.90366156e-13
 4.25701147e-05  4.25701147e-05  3.35966224e-05  5.48376493e-10 -2.16101335e-12  2.74125935e-08 -1.60422020e-10  8.32760148e-13
 4.43766865e-05  4.43766865e-05  3.80513857e-05  6.62148179e-10 -2.65872982e-12  3.23676276e-08 -1.89363375e-10  9.82602831e-13
 4.64566313e-05  4.64566313e-05  4.36476917e-05  8.15484080e-10 -3.34103667e-12  3.88726085e-08 -2.27340446e-10  1.17909854e-12
 4.84574089e-05  4.84574089e-05  4.95230130e-05  9.88221060e-10 -4.12238513e-12  4.60086037e-08 -2.68981359e-10  1.39439851e-12
 5.06803922e-05  5.06803922e-05  5.66422807e-05  1.21286896e-09 -5.15480468e-12  5.50422940e-08 -3.21668641e-10  1.66660249e-12
 5.28874471e-05  5.28874471e-05  6.43526750e-05  1.47409562e-09 -6.37388692e-12  6.52638061e-08 -3.81250587e-10  1.97416962e-12
 5.52871012e-05  5.52871012e-05  7.34942590e-05  1.80676517e-09 -7.94959894e-12  7.79244172e-08 -4.55006159e-10  2.35455510e-12
 5.77155903e-05  5.77155903e-05  8.35844949e-05  2.20134496e-09 -9.84554668e-12  9.25242674e-08 -5.40004420e-10  2.79248882e-12
 6.03183150e-05  6.03183150e-05  9.53766869e-05  2.69709172e-09 -1.22608249e-11  1.10350437e-07 -6.43714203e-10  3.32625178e-12
 6.29835359e-05  6.29835359e-05  1.08545655e-04  3.29253538e-09 -1.52008175e-11  1.31149885e-07 -7.64632191e-10  3.94784810e-12
 6.58137397e-05  6.58137397e-05  1.23794100e-04  4.03440299e-09 -1.89111863e-11  1.56313387e-07 -9.10803625e-10  4.69829954e-12
 6.87336329e-05  6.87336329e-05  1.40949072e-04  4.93284682e-09 -2.34605438e-11  1.85893602e-07 -1.08248308e-09  5.57847888e-12
 7.18163122e-05  7.18163122e-05  1.60696906e-04  6.04664373e-09 -2.91676895e-11  2.21473974e-07 -1.28879469e-09  6.63460102e-12
 7.50119455e-05  7.50119455e-05  1.83018473e-04  7.40302456e-09 -3.61973008e-11  2.63499907e-07 -1.53223646e-09  7.87872460e-12
 7.80906702e-05  7.80906702e-05  2.06376770e-04  8.92726258e-09 -4.41789193e-11  3.09360451e-07 -1.79761884e-09  9.23265151e-12
 8.10669601e-05  8.10669601e-05  2.30753685e-04  1.06268549e-08 -5.31605433e-11  3.59114555e-07 -2.08524038e-09  1.06975236e-11
 8.39046099e-05  8.39046099e-05  2.55697862e-04  1.24761612e-08 -6.30128045e-11  4.11886375e-07 -2.39000255e-09  1.22470529e-11
 8.66230943e-05  8.66230943e-05  2.81205186e-04  1.44779939e-08 -7.37544953e-11  4.67668771e-07 -2.71183614e-09  1.38806299e-11
 8.92355936e-05  8.92355936e-05  3.07248797e-04  1.66334246e-08 -8.53948471e-11  5.26408552e-07 -3.05040651e-09  1.55963007e-11
 9.17682903e-05  9.17682903e-05  3.33970085e-04  1.89582698e-08 -9.80230395e-11  5.88447002e-07 -3.40765053e-09  1.74036017e-11
 9.44315030e-05  9.44315030e-05  3.63676806e-04  2.16738712e-08 -1.12855081e-10  6.59414391e-07 -3.81590788e-09  1.94654034e-11
 9.70969079e-05  9.70969079e-05  3.95102834e-04  2.46922182e-08 -1.29427633e-10  7.36658134e-07 -4.25981191e-09  2.17031366e-11
 9.99007070e-05  9.99007070e-05  4.30039748e-04  2.82183347e-08 -1.48886040e-10  8.25013604e-07 -4.76701996e-09  2.42550424e-11
 1.02733559e-04  1.02733559e-04  4.67346687e-04  3.21758250e-08 -1.70830574e-10  9.22095585e-07 -5.32368415e-09  2.70500392e-11
 1.05687826e-04  1.05687826e-04  5.08459422e-04  3.67600950e-08 -1.96367777e-10  1.03217960e-06 -5.95414050e-09  3.02086828e-11
 1.08688750e-04  1.08688750e-04  5.52588082e-04  4.19329997e-08 -2.25310181e-10  1.15376385e-06 -6.64957625e-09  3.36848871e-11
 1.11800842e-04  1.11800842e-04  6.00936429e-04  4.78916416e-08 -2.58786807e-10  1.29083346e-06 -7.43253948e-09  3.75891105e-11
 1.14974557e-04  1.14974557e-04  6.53022310e-04  5.46413136e-08 -2.96855533e-10  1.44277894e-06 -8.29925870e-09  4.18998861e-11
 1.18254899e-04  1.18254899e-04  7.09884223e-04  6.23897365e-08 -3.40717181e-10  1.61346372e-06 -9.27143346e-09  4.67220308e-11
 1.21609193e-04  1.21609193e-04  7.71289375e-04  7.11894394e-08 -3.90699854e-10  1.80312976e-06 -1.03500437e-08  5.20567360e-11
 1.25068969e-04  1.25068969e-04  8.38167493e-04  8.12692609e-08 -4.48134734e-10  2.01568985e-06 -1.15568757e-08  5.80074592e-11
 1.28612974e-04  1.28612974e-04  9.10495740e-04  9.27355592e-08 -5.13659833e-10  2.25224160e-06 -1.28976145e-08  6.45971709e-11
 1.32263613e-04  1.32263613e-04  9.89144521e-04  1.05851205e-07 -5.88808859e-10  2.51693079e-06 -1.43951174e-08  7.19322864e-11
 1.36007452e-04  1.36007452e-04  1.07427605e-03  1.20786396e-07 -6.74587535e-10  2.81176006e-06 -1.60599629e-08  8.00576465e-11
 1.39860768e-04  1.39860768e-04  1.16674358e-03  1.37853880e-07 -7.72820173e-10  3.14130501e-06 -1.79171081e-08  8.90868801e-11
 1.43815519e-04  1.43815519e-04  1.26687979e-03  1.57301736e-07 -8.84958989e-10  3.50856603e-06 -1.99824279e-08  9.90875623e-11
 1.47883896e-04  1.47883896e-04  1.37555737e-03  1.79512287e-07 -1.01322705e-09  3.91876547e-06 -2.22840794e-08  1.10184774e-10
 1.52061601e-04  1.52061601e-04  1.49327321e-03  2.04830559e-07 -1.15962737e-09  4.37604102e-06 -2.48438577e-08  1.22470374e-10
 1.56358132e-04  1.56358132e-04  1.62095231e-03  2.33733293e-07 -1.32691570e-09  4.88650892e-06 -2.76943344e-08  1.36085189e-10
 1.60771827e-04  1.60771827e-04  1.75925661e-03  2.66687943e-07 -1.51778156e-09  5.45563739e-06 -3.08640883e-08  1.51147532e-10
 1.65310448e-04  1.65310448e-04  1.90919443e-03  3.04297323e-07 -1.73568006e-09  6.09072570e-06 -3.43914791e-08  1.67818368e-10
 1.69974220e-04  1.69974220e-04  2.07159969e-03  3.47185020e-07 -1.98416169e-09  6.79882885e-06 -3.83129995e-08  1.86245166e-10
 1.74769832e-04  1.74769832e-04  2.24759445e-03  3.96120534e-07 -2.26758853e-09  7.58877417e-06 -4.26743780e-08  2.06613510e-10
 1.79698903e-04  1.79698903e-04  2.43819727e-03  4.51927893e-07 -2.59059390e-09  8.46953512e-06 -4.75214516e-08  2.29103133e-10
 1.84767508e-04  1.84767508e-04  2.64467475e-03  5.15595635e-07 -2.95870524e-09  9.45188472e-06 -5.29091577e-08  2.53928720e-10
 1.89978340e-04  1.89978340e-04  2.86824808e-03  5.88206243e-07 -3.37791823e-09  1.05471381e-05 -5.88944478e-08  2.81305582e-10
 1.95337188e-04  1.95337188e-04  3.11036073e-03  6.71034980e-07 -3.85524609e-09  1.17685245e-05 -6.55436229e-08  3.11481814e-10
 2.00847614e-04  2.00847614e-04  3.37245957e-03  7.65498556e-07 -4.39839575e-09  1.31302365e-05 -7.29269071e-08  3.44711521e-10
 2.06515365e-04  2.06515365e-04  3.65619953e-03  8.73246655e-07 -5.01626116e-09  1.46485884e-05 -8.11244921e-08  3.81280007e-10
 2.12344754e-04  2.12344754e-04  3.96328135e-03  9.96129033e-07 -5.71869177e-09  1.63413246e-05 -9.02224704e-08  4.21482824e-10
 2.18341669e-04  2.18341669e-04  4.29560890e-03  1.13628357e-06 -6.51694518e-09  1.82286231e-05 -1.00317886e-07  4.65645250e-10
 2.24511120e-04  2.24511120e-04  4.65517014e-03  1.29612183e-06 -7.42354020e-09  2.03326280e-05 -1.11515785e-07  5.14105683e-10
 2.30859286e-04  2.30859286e-04  5.04415891e-03  1.47841765e-06 -8.45268222e-09  2.26783485e-05 -1.23933515e-07  5.67230289e-10
 2.37391862e-04  2.37391862e-04  5.46488882e-03  1.68631212e-06 -9.62019418e-09  2.52933932e-05 -1.37698706e-07  6.25399424e-10
 2.44115456e-04  2.44115456e-04  5.91988861e-03  1.92340708e-06 -1.09439256e-08  2.82088093e-05 -1.52952999e-07  6.89017991e-10
 2.51036474e-04  2.51036474e-04  6.41184118e-03  2.19379152e-06 -1.24437547e-08  3.14590069e-05 -1.69850809e-07  7.58503644e-10
 2.58162083e-04  2.58162083e-04  6.94365920e-03  2.50214510e-06 -1.41419891e-08  3.50825818e-05 -1.88562635e-07  8.34293034e-10
 2.65499465e-04  2.65499465e-04  7.51844337e-03  2.85378916e-06 -1.60634307e-08  3.91224270e-05 -2.09274468e-07  9.16830539e-10
 2.73056483e-04  2.73056483e-04  8.13954333e-03  3.25480626e-06 -1.82357702e-08  4.36265829e-05 -2.32190792e-07  1.00657022e-09
 2.80841188e-04  2.80841188e-04  8.81053052e-03  3.71212064e-06 -2.06897035e-08  4.86485440e-05 -2.57534513e-07  1.10396365e-09
 2.88862295e-04  2.88862295e-04  9.53524804e-03  4.23364123e-06 -2.34593144e-08  5.42481836e-05 -2.85549718e-07  1.20945704e-09
 2.97128863e-04  2.97128863e-04  1.03177944e-02  4.82837820e-06 -2.65822220e-08  6.04922757e-05 -3.16501999e-07  1.32347650e-09
 3.05650639e-04  3.05650639e-04  1.11625646e-02  5.50661886e-06 -3.00999345e-08  6.74555468e-05 -3.50680974e-07  1.44641920e-09
 3.14437871e-04  3.14437871e-04  1.20742421e-02  6.28008949e-06 -3.40579930e-08  7.52214475e-05 -3.88400855e-07  1.57863414e-09
