 time            time            v(n1)           v(n2)           v(n3)           i(L1)           i(L2)           i(L3)
 3.55113636e-07  3.55113636e-07  5.85659054e-11  7.06317626e-19 -5.24833380e-21  1.58955103e-15 -9.34825504e-18  4.87717163e-20
 3.57255893e-07  3.57255893e-07  5.89234853e-11  7.10604416e-19 -5.28018704e-21  1.59919870e-15 -9.40499361e-18  4.90677328e-20
 3.61540407e-07  3.61540407e-07  5.96489992e-11  7.19240522e-19 -5.34435813e-21  1.61863658e-15 -9.51930907e-18  4.96641394e-20
 3.70109435e-07  3.70109435e-07  6.11504661e-11  7.36817388e-19 -5.47496404e-21  1.65821639e-15 -9.75208057e-18  5.08785549e-20
 3.87247492e-07  3.87247492e-07  6.43683004e-11  7.73273162e-19 -5.74585077e-21  1.74046820e-15 -1.02358090e-17  5.34022630e-20
 4.21523604e-07  4.21523604e-07  7.17214845e-11  8.51820707e-19 -6.32950285e-21  1.91900354e-15 -1.12857876e-17  5.88802144e-20
 4.90075828e-07  4.90075828e-07  9.05234277e-11  1.03542190e-18 -7.69376240e-21  2.34640667e-15 -1.37993781e-17  7.19941393e-20
 5.75274205e-07  5.75274205e-07  1.22581828e-10  1.32596087e-18 -9.85263067e-21  3.04941242e-15 -1.79338163e-17  9.35644037e-20
 6.67094449e-07  6.67094449e-07  1.69569232e-10  1.74245705e-18 -1.29474349e-20  4.09174799e-15 -2.40638927e-17  1.25546397e-19
 7.58096662e-07  7.58096662e-07  2.30712607e-10  2.29828067e-18 -1.70775254e-20  5.50644973e-15 -3.23838974e-17  1.68953778e-19
 8.49588850e-07  8.49588850e-07  3.08766144e-10  3.05065682e-18 -2.26681192e-20  7.41953145e-15 -4.36349256e-17  2.27652988e-19
 9.39476629e-07  9.39476629e-07  4.03552070e-10  4.03983889e-18 -3.00183228e-20  9.89610231e-15 -5.81998811e-17  3.03641678e-19
 1.02985103e-06  1.02985103e-06  5.18869431e-10  5.35978169e-18 -3.98262741e-20  1.31147646e-14 -7.71291261e-17  4.02399752e-19
 1.12052805e-06  1.12052805e-06  6.56689352e-10  7.10393219e-18 -5.27863353e-20  1.72248446e-14 -1.01300840e-16  5.28508761e-19
 1.21215026e-06  1.21215026e-06  8.20437846e-10  9.40536179e-18 -6.98872972e-20  2.24374849e-14 -1.31956741e-16  6.88446856e-19
 1.30483377e-06  1.30483377e-06  1.01318346e-09  1.24205009e-17 -9.22915160e-20  2.89774952e-14 -1.70418909e-16  8.89111403e-19
 1.39872875e-06  1.39872875e-06  1.23836912e-09  1.63433025e-17 -1.21440155e-19  3.71073832e-14 -2.18231117e-16  1.13855630e-18
 1.49628531e-06  1.49628531e-06  1.50656994e-09  2.15521393e-17 -1.60144707e-19  4.74001069e-14 -2.78762881e-16  1.45436054e-18
 1.60144847e-06  1.60144847e-06  1.83756401e-09  2.87478336e-17 -2.13612614e-19  6.09146064e-14 -3.58241739e-16  1.86901359e-18
 1.71281275e-06  1.71281275e-06  2.23876664e-09  3.85464658e-17 -2.86421600e-19  7.83586457e-14 -4.60829882e-16  2.40422934e-18
 1.83301729e-06  1.83301729e-06  2.73445000e-09  5.21935484e-17 -3.87826328e-19  1.01329996e-13 -5.95923530e-16  3.10902771e-18
 1.96074589e-06  1.96074589e-06  3.33738283e-09  7.09562069e-17 -5.27241951e-19  1.31131879e-13 -7.71186513e-16  4.02338980e-18
 2.09806261e-06  2.09806261e-06  4.07931435e-09  9.71113778e-17 -7.21586842e-19  1.70267408e-13 -1.00133897e-15  5.22410898e-18
 2.24426385e-06  2.24426385e-06  4.98345036e-09  1.33281947e-16 -9.90349667e-19  2.21183212e-13 -1.30076856e-15  6.78624238e-18
 2.40109743e-06  2.40109743e-06  6.09343399e-09  1.83749406e-16 -1.36534285e-18  2.87940192e-13 -1.69335588e-15  8.83436984e-18
 2.56835219e-06  2.56835219e-06  7.44809108e-09  2.53831359e-16 -1.88607691e-18  3.74973793e-13 -2.20518358e-15  1.15045558e-17
 2.74756479e-06  2.74756479e-06  9.10905050e-09  3.51701763e-16 -2.61328511e-18  4.88997010e-13 -2.87572732e-15  1.50027309e-17
 2.92451487e-06  2.92451487e-06  1.09756753e-08  4.76304094e-16 -3.53911465e-18  6.25531415e-13 -3.67864830e-15  1.91914745e-17
 3.09969821e-06  3.09969821e-06  1.30595574e-08  6.32512383e-16 -4.69977831e-18  7.87200747e-13 -4.62937398e-15  2.41512576e-17
 3.27059753e-06  3.27059753e-06  1.53320003e-08  8.22225777e-16 -6.10938428e-18  9.73394637e-13 -5.72431294e-15  2.98633318e-17
 3.43780965e-06  3.43780965e-06  1.77969701e-08  1.04965373e-15 -7.79920651e-18  1.18585473e-12 -6.97370508e-15  3.63811039e-17
 3.60177012e-06  3.60177012e-06  2.04578848e-08  1.31921231e-15 -9.80205335e-18  1.42630742e-12 -8.38770048e-15  4.37575105e-17
 3.76306317e-06  3.76306317e-06  2.33224116e-08  1.63604853e-15 -1.21561637e-17  1.69691215e-12 -9.97899552e-15  5.20587701e-17
 3.93123995e-06  3.93123995e-06  2.65821271e-08  2.02888709e-15 -1.50749573e-17  2.01846473e-12 -1.18698764e-14  6.19227853e-17
 4.10507007e-06  4.10507007e-06  3.02574401e-08  2.51136846e-15 -1.86597740e-17  2.39698088e-12 -1.40957131e-14  7.35340332e-17
 4.28805540e-06  4.28805540e-06  3.44774812e-08  3.11496681e-15 -2.31444528e-17  2.85076554e-12 -1.67641392e-14  8.74539470e-17
 4.47837698e-06  4.47837698e-06  3.92658010e-08  3.86137005e-15 -2.86901164e-17  3.38842016e-12 -1.99257254e-14  1.03946271e-16
 4.67809598e-06  4.67809598e-06  4.47476302e-08  4.79281544e-15 -3.56105588e-17  4.03119619e-12 -2.37054258e-14  1.23662749e-16
 4.88601936e-06  4.88601936e-06  5.09740730e-08  5.94618081e-15 -4.41797451e-17  4.79363511e-12 -2.81887339e-14  1.47049255e-16
 5.10374163e-06  5.10374163e-06  5.80871793e-08  7.38272270e-15 -5.48527552e-17  5.70326115e-12 -3.35374800e-14  1.74949830e-16
 5.33062824e-06  5.33062824e-06  6.61741296e-08  9.16347536e-15 -6.80830005e-17  6.78328399e-12 -3.98881178e-14  2.08076101e-16
 5.56796366e-06  5.56796366e-06  7.54029271e-08  1.13793609e-14 -8.45459250e-17  8.07047008e-12 -4.74568086e-14  2.47555412e-16
 5.81548464e-06  5.81548464e-06  8.59031506e-08  1.41285486e-14 -1.04970785e-16  9.59996061e-12 -5.64501471e-14  2.94465137e-16
 6.07425463e-06  6.07425463e-06  9.78786919e-08  1.75477355e-14 -1.30373037e-16  1.14217502e-11 -6.71620534e-14  3.50338056e-16
 6.34427121e-06  6.34427121e-06  1.11510830e-07  2.17922637e-14 -1.61906604e-16  1.35875836e-11 -7.98967216e-14  4.16760422e-16
 6.62645658e-06  6.62645658e-06  1.27052362e-07  2.70695570e-14 -2.01112269e-16  1.61663691e-11 -9.50592456e-14  4.95844624e-16
 6.92100406e-06  6.92100406e-06  1.44749305e-07  3.36231583e-14 -2.49799050e-16  1.92331480e-11 -1.13090753e-13  5.89890813e-16
 7.22875527e-06  7.22875527e-06  1.64920033e-07  4.17698013e-14 -3.10319580e-16  2.28838008e-11 -1.34554868e-13  7.01837788e-16
 7.55005691e-06  7.55005691e-06  1.87892715e-07  5.18891767e-14 -3.85494024e-16  2.72261757e-11 -1.60085535e-13  8.34990827e-16
 7.88571357e-06  7.88571357e-06  2.14072584e-07  6.44669241e-14 -4.78929395e-16  3.23945184e-11 -1.90471855e-13  9.93463996e-16
 8.23619749e-06  8.23619749e-06  2.43892886e-07  8.00929388e-14 -5.95006884e-16  3.85429682e-11 -2.26619820e-13  1.18198050e-15
 8.60230793e-06  8.60230793e-06  2.77873027e-07  9.95138089e-14 -7.39271279e-16  4.58602503e-11 -2.69638679e-13  1.40632291e-15
 8.98462507e-06  8.98462507e-06  3.16581363e-07  1.23644017e-13 -9.18514004e-16  5.45659043e-11 -3.20818735e-13  1.67321716e-15
 9.38396657e-06  9.38396657e-06  3.60686664e-07  1.53633259e-13 -1.14127298e-15  6.49259354e-11 -3.81723328e-13  1.99081198e-15
 9.80101035e-06  9.80101035e-06  4.10931608e-07  1.90897273e-13 -1.41806134e-15  7.72523576e-11 -4.54186107e-13  2.36866430e-15
 1.02366109e-05  1.02366109e-05  4.68179815e-07  2.37208436e-13 -1.76203994e-15  9.19207294e-11 -5.40414058e-13  2.81827605e-15
 1.06915389e-05  1.06915389e-05  5.33399368e-07  2.94756619e-13 -2.18946895e-15  1.09373891e-10 -6.43009409e-13  3.35320783e-15
 1.11667006e-05  1.11667006e-05  6.07707605e-07  3.66276019e-13 -2.72064909e-15  1.30142641e-10 -7.65091096e-13  3.98971144e-15
 1.16629584e-05  1.16629584e-05  6.92364486e-07  4.55152123e-13 -3.38071526e-15  1.54854967e-10 -9.10348891e-13  4.74701126e-15
 1.21812831e-05  1.21812831e-05  7.88817348e-07  5.65604778e-13 -4.20099489e-15  1.84261596e-10 -1.08319347e-12  5.64808528e-15
 1.27226305e-05  1.27226305e-05  8.98704440e-07  7.02866110e-13 -5.22032762e-15  2.19252599e-10 -1.28885379e-12  6.72017139e-15
 1.32880476e-05  1.32880476e-05  1.02390200e-06  8.73450735e-13 -6.48706981e-15  2.60890226e-10 -1.53356992e-12  7.99577030e-15
 1.38785876e-05  1.38785876e-05  1.16653886e-06  1.08544301e-12 -8.06122464e-15  3.10435594e-10 -1.82474951e-12  9.51345892e-15
 1.44953842e-05  1.44953842e-05  1.32904845e-06  1.34890210e-12 -1.00174461e-14  3.69392184e-10 -2.17122314e-12  1.13192176e-14
 1.51395940e-05  1.51395940e-05  1.51419601e-06  1.67631789e-12 -1.24484188e-14  4.39546485e-10 -2.58348261e-12  1.34676682e-14
 1.58124483e-05  1.58124483e-05  1.72513867e-06  2.08322465e-12 -1.54694071e-14  5.23026896e-10 -3.07402654e-12  1.60238691e-14
 1.65152142e-05  1.65152142e-05  1.96546749e-06  2.58891714e-12 -1.92235624e-14  6.22363847e-10 -3.65771282e-12  1.90651453e-14
 1.72492314e-05  1.72492314e-05  2.23927933e-06  3.21738685e-12 -2.38888601e-14  7.40570810e-10 -4.35223360e-12  2.26835540e-14
 1.80158863e-05  1.80158863e-05  2.55123702e-06  3.99843987e-12 -2.96863812e-14  8.81231736e-10 -5.17862783e-12  2.69885424e-14
 1.88166384e-05  1.88166384e-05  2.90665761e-06  4.96913156e-12 -3.68909377e-14  1.04861363e-09 -6.16194090e-12  3.21103701e-14
 1.96530035e-05  1.96530035e-05  3.31159504e-06  6.17550501e-12 -4.58439445e-14  1.24779248e-09 -7.33196232e-12  3.82039305e-14
 2.05265728e-05  2.05265728e-05  3.77295056e-06  7.67479600e-12 -5.69697408e-14  1.48481073e-09 -8.72414822e-12  4.54535309e-14
 2.14390027e-05  2.14390027e-05  4.29858389e-06  9.53812995e-12 -7.07955466e-14  1.76685755e-09 -1.03806765e-11  5.40783537e-14
 2.23920292e-05  2.23920292e-05  4.89745308e-06  1.18539174e-11 -8.79765802e-14  2.10249017e-09 -1.23517426e-11  6.43391605e-14
 2.33874622e-05  2.33874622e-05  5.57976198e-06  1.47320315e-11 -1.09326949e-13  2.50189090e-09 -1.46970628e-11  7.65460645e-14
 2.44271963e-05  2.44271963e-05  6.35713904e-06  1.83090436e-11 -1.35858347e-13  2.97717915e-09 -1.74876997e-11  9.10679592e-14
 2.55132087e-05  2.55132087e-05  7.24283124e-06  2.27546883e-11 -1.68827822e-13  3.54277709e-09 -2.08081991e-11  1.08343549e-13
 2.66475683e-05  2.66475683e-05  8.25193406e-06  2.82799422e-11 -2.09797433e-13  4.21585032e-09 -2.47591657e-11  1.28894631e-13
 2.78324354e-05  2.78324354e-05  9.40164529e-06  3.51470245e-11 -2.60708068e-13  5.01682739e-09 -2.94602964e-11  1.53341721e-13
 2.90700697e-05  2.90700697e-05  1.07115618e-05  4.36818704e-11 -3.23971453e-13  5.97002303e-09 -3.50540189e-11  1.82422779e-13
 3.03628319e-05  3.03628319e-05  1.22040108e-05  5.42895954e-11 -4.02584161e-13  7.10437552e-09 -4.17097929e-11  2.17015315e-13
 3.17131911e-05  3.17131911e-05  1.39044337e-05  6.74737611e-11 -5.00269553e-13  8.45432907e-09 -4.96292540e-11  2.58162797e-13
 3.31237275e-05  3.31237275e-05  1.58418177e-05  8.38602865e-11 -6.21653808e-13  1.00608800e-08 -5.90523093e-11  3.07105894e-13
 3.45971400e-05  3.45971400e-05  1.80491928e-05  1.04227214e-10 -7.72484894e-13  1.19728265e-08 -7.02644124e-11  3.65319717e-13
 3.55113636e-05  3.55113636e-05  1.95160746e-05  1.18693145e-10 -8.79593417e-13  1.32868006e-08 -7.79686354e-11  4.05308455e-13
 3.56652746e-05  3.56652746e-05  1.97714896e-05  1.21291012e-10 -8.98826735e-13  1.35192408e-08 -7.93313991e-11  4.12380871e-13
 3.59730966e-05  3.59730966e-05  2.02876201e-05  1.26595524e-10 -9.38097360e-13  1.39914011e-08 -8.20995331e-11  4.26746097e-13
 3.65887406e-05  3.65887406e-05  2.13455934e-05  1.37743086e-10 -1.02061859e-12  1.49713898e-08 -8.78445373e-11  4.56556098e-13
 3.74351828e-05  3.74351828e-05  2.28588144e-05  1.54338481e-10 -1.14345091e-12  1.64014207e-08 -9.62269250e-11  5.00042187e-13
 3.90683510e-05  3.90683510e-05  2.59779728e-05  1.90956842e-10 -1.41441572e-12  1.94507908e-08 -1.14097879e-10  5.92718586e-13
 4.06122115e-05  4.06122115e-05  2.91762819e-05  2.31719231e-10 -1.71594673e-12  2.27087481e-08 -1.33186498e-10  6.91662394e-13
 4.25701039e-05  4.25701039e-05  3.35967169e-05  2.93204372e-10 -2.17059724e-12  2.74126451e-08 -1.60739054e-10  8.34399098e-13
 4.43766731e-05  4.43766731e-05  3.80514930e-05  3.60886627e-10 -2.67086625e-12  3.23676862e-08 -1.89753578e-10  9.84618747e-13
 4.64566140e-05  4.64566140e-05  4.36478133e-05  4.53727856e-10 -3.35678799e-12  3.88726737e-08 -2.27831003e-10  1.18163099e-12
 4.84573881e-05  4.84573881e-05  4.95231509e-05  5.60115639e-10 -4.14241368e-12  4.60086766e-08 -2.69586921e-10  1.39752230e-12
 5.06803669e-05  5.06803669e-05  5.66424370e-05  7.00788850e-10 -5.18067485e-12  5.50423740e-08 -3.22426262e-10  1.67050729e-12
 5.28874172e-05  5.28874172e-05  6.43528520e-05  8.67022288e-10 -6.40688886e-12  6.52638937e-08 -3.82187905e-10  1.97899628e-12
 5.52870658e-05  5.52870658e-05  7.34944594e-05  1.08206208e-09 -7.99213566e-12  7.79245112e-08 -4.56175931e-10  2.36057270e-12
 5.77155492e-05  5.77155492e-05  8.35847217e-05  1.34103341e-09 -9.89995408e-12  9.25243674e-08 -5.41454150e-10  2.79993876e-12
 6.03182671e-05  6.03182671e-05  9.53769436e-05  1.67125590e-09 -1.23308859e-11  1.10350540e-07 -6.45520924e-10  3.33552540e-12
 6.29834808e-05  6.29834808e-05  1.08545945e-04  2.07363163e-09 -1.52906090e-11  1.31149989e-07 -7.66873934e-10  3.95934035e-12
 6.58136763e-05  6.58136763e-05  1.23794428e-04  2.58200721e-09 -1.90267724e-11  1.56313487e-07 -9.13595023e-10  4.71259004e-12
 6.87335605e-05  6.87335605e-05  1.40949443e-04  3.20608348e-09 -2.36089043e-11  1.85893692e-07 -1.08594929e-09  5.59619815e-12
 7.18162298e-05  7.18162298e-05  1.60697325e-04  3.98999819e-09 -2.93586733e-11  2.21474043e-07 -1.29310861e-09  6.65661856e-12
 7.50118520e-05  7.50118520e-05  1.83018946e-04  4.95691363e-09 -3.64427294e-11  2.63499943e-07 -1.53759613e-09  7.90603233e-12
 7.83734167e-05  7.83734167e-05  2.08619537e-04  6.16707461e-09 -4.52980535e-11  3.13868753e-07 -1.83035899e-09  9.39943019e-12
 8.16082751e-05  8.16082751e-05  2.35390066e-04  7.54285619e-09 -5.53525481e-11  3.68810941e-07 -2.14941098e-09  1.10238571e-11
 8.47281501e-05  8.47281501e-05  2.63269059e-04  9.09041674e-09 -6.66481875e-11  4.28303424e-07 -2.49457163e-09  1.27779040e-11
 8.76945693e-05  8.76945693e-05  2.91719653e-04  1.07859169e-08 -7.90082322e-11  4.91238723e-07 -2.85937786e-09  1.46283272e-11
 9.05248133e-05  9.05248133e-05  3.20687904e-04  1.26288111e-08 -9.24263367e-11  5.57476813e-07 -3.24298955e-09  1.65705645e-11
 9.32358379e-05  9.32358379e-05  3.50156631e-04  1.46205330e-08 -1.06910589e-10  6.26960612e-07 -3.64504869e-09  1.86025129e-11
 9.58446954e-05  9.58446954e-05  3.80149287e-04  1.67654320e-08 -1.22490223e-10  6.99736366e-07 -4.06579523e-09  2.07250931e-11
 9.84775190e-05  9.84775190e-05  4.12086521e-04  1.91768031e-08 -1.39984206e-10  7.79396040e-07 -4.52593986e-09  2.30421957e-11
 1.01175188e-04  1.01175188e-04  4.46594683e-04  2.19264466e-08 -1.59906992e-10  8.67854852e-07 -5.03644680e-09  2.56079879e-11
 1.03943092e-04  1.03943092e-04  4.83926176e-04  2.50654824e-08 -1.82620747e-10  9.66203501e-07 -5.60348568e-09  2.84521580e-11
 1.06793977e-04  1.06793977e-04  5.24466430e-04  2.86630122e-08 -2.08615340e-10  1.07597173e-06 -6.23572584e-09  3.16165995e-11
 1.09719947e-04  1.09719947e-04  5.68334404e-04  3.27715153e-08 -2.38257765e-10  1.19805469e-06 -6.93814686e-09  3.51243727e-11
 1.12729154e-04  1.12729154e-04  6.15897711e-04  3.74729684e-08 -2.72124828e-10  1.33410815e-06 -7.72006989e-09  3.90198548e-11
 1.15816951e-04  1.15816951e-04  6.67346666e-04  4.28403163e-08 -3.10724406e-10  1.48537875e-06 -8.58841954e-09  4.33350086e-11
 1.18990381e-04  1.18990381e-04  7.23080895e-04  4.89768415e-08 -3.54778143e-10  1.65382008e-06 -9.55412980e-09  4.81212086e-11
 1.22247531e-04  1.22247531e-04  7.83372067e-04  5.59827850e-08 -4.04980261e-10  1.84112052e-06 -1.06265520e-08  5.34213374e-11
 1.25594278e-04  1.25594278e-04  8.48657489e-04  6.39891647e-08 -4.62239044e-10  2.04960309e-06 -1.18186029e-08  5.92951805e-11
 1.29030304e-04  1.29030304e-04  9.19286377e-04  7.31304237e-08 -5.27479237e-10  2.28145803e-06 -1.31423557e-08  6.57974868e-11
 1.32560560e-04  1.32560560e-04  9.95743453e-04  8.35738276e-08 -6.01850402e-10  2.53947314e-06 -1.46131999e-08  7.29983038e-11
 1.36185801e-04  1.36185801e-04  1.07845894e-03  9.54975197e-08 -6.86568005e-10  2.82643397e-06 -1.62463976e-08  8.09658595e-11
 1.39910395e-04  1.39910395e-04  1.16797851e-03  1.09116384e-07 -7.83094866e-10  3.14571871e-06 -1.80604524e-08  8.97828334e-11
 1.43735895e-04  1.43735895e-04  1.26482107e-03  1.24664913e-07 -8.93016110e-10  3.50083361e-06 -2.00744387e-08  9.95330529e-11
 1.47666347e-04  1.47666347e-04  1.36960807e-03  1.42420399e-07 -1.01819962e-09  3.89590170e-06 -2.23107479e-08  1.10314537e-10
 1.51703923e-04  1.51703923e-04  1.48295749e-03  1.62690228e-07 -1.16070141e-09  4.33530890e-06 -2.47930447e-08  1.22229229e-10
 1.55852535e-04  1.55852535e-04  1.60558251e-03  1.85833263e-07 -1.32291064e-09  4.82411157e-06 -2.75485322e-08  1.35393501e-10
 1.60114861e-04  1.60114861e-04  1.73821305e-03  2.12251355e-07 -1.50748312e-09  5.36777471e-06 -3.06064228e-08  1.49930308e-10
 1.64494809e-04  1.64494809e-04  1.88167157e-03  2.42409785e-07 -1.71747622e-09  5.97251929e-06 -3.39998379e-08  1.65977692e-10
 1.68995497e-04  1.68995497e-04  2.03681553e-03  2.76832972e-07 -1.95630900e-09  6.64513879e-06 -3.77647076e-08  1.83682872e-10
 1.73620927e-04  1.73620927e-04  2.20459618e-03  3.16124867e-07 -2.22789219e-09  7.39330395e-06 -4.19414002e-08  2.03209163e-10
 1.78374621e-04  1.78374621e-04  2.38601705e-03  3.60969046e-07 -2.53661450e-09  8.22544791e-06 -4.65739853e-08  2.24731588e-10
 1.83260757e-04  1.83260757e-04  2.58218016e-03  4.12150027e-07 -2.88747263e-09  9.15104390e-06 -5.17116727e-08  2.48442537e-10
 1.88283247e-04  1.88283247e-04  2.79425681e-03  4.70558156e-07 -3.28608411e-09  1.01805527e-05 -5.74083904e-08  2.74548552e-10
 1.93446515e-04  1.93446515e-04  3.02352457e-03  5.37212958e-07 -3.73882240e-09  1.13256874e-05 -6.37241005e-08  3.03274947e-10
 1.98754872e-04  1.98754872e-04  3.27134768e-03  6.13273495e-07 -4.25285747e-09  1.25994200e-05 -7.07246575e-08  3.34863459e-10
 2.04213048e-04  2.04213048e-04  3.53920735e-03  7.00065069e-07 -4.83630106e-09  1.40162467e-05 -7.84830588e-08  3.69575954e-10
 2.09825775e-04  2.09825775e-04  3.82868969e-03  7.99096040e-07 -5.49827682e-09  1.55922539e-05 -8.70795600e-08  4.07692650e-10
 2.15598154e-04  2.15598154e-04  4.14151130e-03  9.12089495e-07 -6.24908090e-09  1.73453972e-05 -9.66029103e-08  4.49514956e-10
 2.21535376e-04  2.21535376e-04  4.47951318e-03  1.04100793e-06 -7.10028405e-09  1.92956301e-05 -1.07150710e-07  4.95363935e-10
 2.27642977e-04  2.27642977e-04  4.84468311e-03  1.18809187e-06 -8.06491253e-09  2.14652110e-05 -1.18830677e-07  5.45582221e-10
 2.33926659e-04  2.33926659e-04  5.23915439e-03  1.35589435e-06 -9.15758468e-09  2.38789011e-05 -1.31761234e-07  6.00532363e-10
 2.40392467e-04  2.40392467e-04  5.66522618e-03  1.54732900e-06 -1.03947167e-08  2.65643159e-05 -1.46072844e-07  6.60597622e-10
 2.47046679e-04  2.47046679e-04  6.12536613e-03  1.76571685e-06 -1.17946960e-08  2.95522021e-05 -1.61908828e-07  7.26179743e-10
 2.53895938e-04  2.53895938e-04  6.62222948e-03  2.01484720e-06 -1.33781148e-08  3.28768521e-05 -1.79426795e-07  7.97698290e-10
 2.60947183e-04  2.60947183e-04  7.15866503e-03  2.29904016e-06 -1.51679811e-08  3.65764758e-05 -1.98799688e-07  8.75587257e-10
 2.68207753e-04  2.68207753e-04  7.73773347e-03  2.62322434e-06 -1.71899816e-08  4.06937006e-05 -2.20217324e-07  9.60292388e-10
 2.75685358e-04  2.75685358e-04  8.36271605e-03  2.99301981e-06 -1.94727273e-08  4.52760584e-05 -2.43887661e-07  1.05226583e-09
 2.83388159e-04  2.83388159e-04  9.03713260e-03  3.41483798e-06 -2.20480422e-08  5.03765997e-05 -2.70038461e-07  1.15196065e-09
 2.91324769e-04  2.91324769e-04  9.76475224e-03  3.89599090e-06 -2.49512360e-08  5.60545250e-05 -2.98918744e-07  1.25982239e-09
 2.99504327e-04  2.99504327e-04  1.05496111e-02  4.44482043e-06 -2.82214071e-08  6.23759483e-05 -3.30800558e-07  1.37627965e-09
 3.07936520e-04  3.07936520e-04  1.13960245e-02  5.07084184e-06 -3.19017237e-08  6.94147112e-05 -3.65980581e-07  1.50173111e-09
