 time            time            v(n1)           v(n2)           v(n3)           i(L1)           i(L2)           i(L3)
 3.55113636e-07  3.55113636e-07  5.85658984e-11  1.55198776e-17 -5.24019418e-21  1.58955084e-15 -9.34749136e-18  4.87677327e-20
 3.57255894e-07  3.57255894e-07  5.89234784e-11  1.56140317e-17 -5.27199806e-21  1.59919851e-15 -9.40422530e-18  4.90637250e-20
 3.61540408e-07  3.61540408e-07  5.96489922e-11  1.58037856e-17 -5.33606965e-21  1.61863639e-15 -9.51853144e-18  4.96600830e-20
 3.70109438e-07  3.70109438e-07  6.11504592e-11  1.61902031e-17 -5.46647304e-21  1.65821620e-15 -9.75128397e-18  5.08743996e-20
 3.87247496e-07  3.87247496e-07  6.43682937e-11  1.69931941e-17 -5.73693970e-21  1.74046801e-15 -1.02349730e-17  5.33979025e-20
 4.21523614e-07  4.21523614e-07  7.17214784e-11  1.87356152e-17 -6.31968674e-21  1.91900336e-15 -1.12848670e-17  5.88754117e-20
 4.90075848e-07  4.90075848e-07  9.05234239e-11  2.29024872e-17 -7.68183163e-21  2.34640653e-15 -1.37982594e-17  7.19883038e-20
 5.75274235e-07  5.75274235e-07  1.22581828e-10  2.97449543e-17 -9.83735730e-21  3.04941235e-15 -1.79323843e-17  9.35569338e-20
 6.67094482e-07  6.67094482e-07  1.69569233e-10  3.98760731e-17 -1.29273780e-20  4.09174796e-15 -2.40620113e-17  1.25536583e-19
 7.58096702e-07  7.58096702e-07  2.30712614e-10  5.36173676e-17 -1.70510967e-20  5.50644985e-15 -3.23814168e-17  1.68940838e-19
 8.49588895e-07  8.49588895e-07  3.08766155e-10  7.22009416e-17 -2.26330775e-20  7.41953173e-15 -4.36316336e-17  2.27635815e-19
 9.39476685e-07  9.39476685e-07  4.03552093e-10  9.62745048e-17 -2.99719668e-20  9.89610301e-15 -5.81955235e-17  3.03618947e-19
 1.02985110e-06  1.02985110e-06  5.18869468e-10  1.27597660e-16 -3.97648216e-20  1.31147659e-14 -7.71233468e-17  4.02369605e-19
 1.12052813e-06  1.12052813e-06  6.56689412e-10  1.67657150e-16 -5.27049217e-20  1.72248468e-14 -1.01293183e-16  5.28468819e-19
 1.21215036e-06  1.21215036e-06  8.20437935e-10  2.18556304e-16 -6.97795096e-20  2.24374885e-14 -1.31946607e-16  6.88393992e-19
 1.30483388e-06  1.30483388e-06  1.01318359e-09  2.82550245e-16 -9.21491080e-20  2.89775008e-14 -1.70405530e-16  8.89041614e-19
 1.39872888e-06  1.39872888e-06  1.23836930e-09  3.62284456e-16 -1.21252591e-19  3.71073915e-14 -2.18213517e-16  1.13846449e-18
 1.49628546e-06  1.49628546e-06  1.50657017e-09  4.63486087e-16 -1.59897000e-19  4.74001187e-14 -2.78739676e-16  1.45423949e-18
 1.60144865e-06  1.60144865e-06  1.83756433e-09  5.96742232e-16 -2.13281516e-19  6.09146233e-14 -3.58210792e-16  1.86885216e-18
 1.71281294e-06  1.71281294e-06  2.23876705e-09  7.69287599e-16 -2.85976449e-19  7.83586695e-14 -4.60788390e-16  2.40401290e-18
 1.83301752e-06  1.83301752e-06  2.73445056e-09  9.97301333e-16 -3.87221529e-19  1.01330030e-13 -5.95867352e-16  3.10873467e-18
 1.96074615e-06  1.96074615e-06  3.33738357e-09  1.29425537e-15 -5.26416396e-19  1.31131927e-13 -7.71110141e-16  4.02299142e-18
 2.09806291e-06  2.09806291e-06  4.07931533e-09  1.68586149e-15 -7.20451564e-19  1.70267476e-13 -1.00123445e-15  5.22356376e-18
 2.24426419e-06  2.24426419e-06  4.98345165e-09  2.19769987e-15 -9.88782982e-19  2.21183308e-13 -1.30062510e-15  6.78549403e-18
 2.40109782e-06  2.40109782e-06  6.09343570e-09  2.87216637e-15 -1.36316945e-18  2.87940328e-13 -1.69315807e-15  8.83333801e-18
 2.56835264e-06  2.56835264e-06  7.44809334e-09  3.75632060e-15 -1.88305360e-18  3.74973983e-13 -2.20491026e-15  1.15031302e-17
 2.74756530e-06  2.74756530e-06  9.10905348e-09  4.92157839e-15 -2.60906349e-18  4.88997279e-13 -2.87534852e-15  1.50007551e-17
 2.92451541e-06  2.92451541e-06  1.09756787e-08  6.32552092e-15 -3.53335196e-18  6.25531745e-13 -3.67813491e-15  1.91887967e-17
 3.09969879e-06  3.09969879e-06  1.30595612e-08  7.99820485e-15 -4.69206441e-18  7.87201155e-13 -4.62869177e-15  2.41476994e-17
 3.27059813e-06  3.27059813e-06  1.53320045e-08  9.93649428e-15 -6.09927702e-18  9.73395125e-13 -5.72342545e-15  2.98587030e-17
 3.43781028e-06  3.43781028e-06  1.77969747e-08  1.21617199e-14 -7.78620188e-18  1.18585531e-12 -6.97257132e-15  3.63751906e-17
 3.60177078e-06  3.60177078e-06  2.04578898e-08  1.46954190e-14 -9.78558105e-18  1.42630810e-12 -8.38627455e-15  4.37500736e-17
 3.76306386e-06  3.76306386e-06  2.33224171e-08  1.75641008e-14 -1.21355759e-17  1.69691296e-12 -9.97722588e-15  5.20495406e-17
 3.93124070e-06  3.93124070e-06  2.65821334e-08  2.09942046e-14 -1.50492156e-17  2.01846571e-12 -1.18676804e-14  6.19113324e-17
 4.10507087e-06  4.10507087e-06  3.02574472e-08  2.50586445e-14 -1.86276349e-17  2.39698206e-12 -1.40929926e-14  7.35198455e-17
 4.28805627e-06  4.28805627e-06  3.44774895e-08  2.99655286e-14 -2.31042202e-17  2.85076699e-12 -1.67607620e-14  8.74363347e-17
 4.47837791e-06  4.47837791e-06  3.92658104e-08  3.58228074e-14 -2.86397548e-17  3.38842190e-12 -1.99215348e-14  1.03924417e-16
 4.67809698e-06  4.67809698e-06  4.47476411e-08  4.28810750e-14 -3.55473957e-17  4.03119832e-12 -2.37002185e-14  1.23635594e-16
 4.88602042e-06  4.88602042e-06  5.09740854e-08  5.13244277e-14 -4.41005140e-17  4.79363768e-12 -2.81822653e-14  1.47015522e-16
 5.10374278e-06  5.10374278e-06  5.80871937e-08  6.14889252e-14 -5.47532208e-17  5.70326429e-12 -3.35294372e-14  1.74907890e-16
 5.33062948e-06  5.33062948e-06  6.61741460e-08  7.36740904e-14 -6.79579079e-17  6.78328780e-12 -3.98781188e-14  2.08023961e-16
 5.56796500e-06  5.56796500e-06  7.54029459e-08  8.83464018e-14 -8.43885033e-17  8.07047472e-12 -4.74443689e-14  2.47490547e-16
 5.81548608e-06  5.81548608e-06  8.59031721e-08  1.05973097e-13 -1.04772544e-16  9.59996625e-12 -5.64346697e-14  2.94384435e-16
 6.07425617e-06  6.07425617e-06  9.78787166e-08  1.27216446e-13 -1.30123069e-16  1.14217571e-11 -6.71427850e-14  3.50237590e-16
 6.34427287e-06  6.34427287e-06  1.11510858e-07  1.52791334e-13 -1.61591121e-16  1.35875919e-11 -7.98727285e-14  4.16635325e-16
 6.62645838e-06  6.62645838e-06  1.27052394e-07  1.83656015e-13 -2.00713557e-16  1.61663793e-11 -9.50293518e-14  4.95688769e-16
 6.92100600e-06  6.92100600e-06  1.44749342e-07  2.20896511e-13 -2.49294564e-16  1.92331605e-11 -1.13053495e-13  5.89696565e-16
 7.22875737e-06  7.22875737e-06  1.64920076e-07  2.65921622e-13 -3.09680302e-16  2.28838160e-11 -1.34508401e-13  7.01595546e-16
 7.55005916e-06  7.55005916e-06  1.87892764e-07  3.20380412e-13 -3.84682778e-16  2.72261942e-11 -1.60027556e-13  8.34688582e-16
 7.88571601e-06  7.88571601e-06  2.14072641e-07  3.86373113e-13 -4.77898161e-16  3.23945410e-11 -1.90399461e-13  9.93086626e-16
 8.23620012e-06  8.23620012e-06  2.43892952e-07  4.66413262e-13 -5.93693731e-16  3.85429959e-11 -2.26529369e-13  1.18150903e-15
 8.60231077e-06  8.60231077e-06  2.77873102e-07  5.63672748e-13 -7.37595804e-16  4.58602841e-11 -2.69525574e-13  1.40573339e-15
 8.98462815e-06  8.98462815e-06  3.16581449e-07  6.82009023e-13 -9.16371763e-16  5.45659456e-11 -3.20677185e-13  1.67247942e-15
 9.38396990e-06  9.38396990e-06  3.60686764e-07  8.26273901e-13 -1.13852751e-15  6.49259859e-11 -3.81546004e-13  1.98988785e-15
 9.80101395e-06  9.80101395e-06  4.10931723e-07  1.00244141e-12 -1.41453395e-15  7.72524194e-11 -4.53963731e-13  2.36750545e-15
 1.02366148e-05  1.02366148e-05  4.68179947e-07  1.21802971e-12 -1.75749536e-15  9.19208051e-11 -5.40134846e-13  2.81682113e-15
 1.06915431e-05  1.06915431e-05  5.33399520e-07  1.48239141e-12 -2.18359629e-15  1.09373983e-10 -6.42658372e-13  3.35137877e-15
 1.11667051e-05  1.11667051e-05  6.07707780e-07  1.80733256e-12 -2.71303534e-15  1.30142754e-10 -7.64649098e-13  3.98740863e-15
 1.16629633e-05  1.16629633e-05  6.92364688e-07  2.20767321e-12 -3.37080917e-15  1.54855106e-10 -9.09791455e-13  4.74410728e-15
 1.21812884e-05  1.21812884e-05  7.88817581e-07  2.70220840e-12 -4.18805646e-15  1.84261767e-10 -1.08248917e-12  5.64441657e-15
 1.27226363e-05  1.27226363e-05  8.98704708e-07  3.31472785e-12 -5.20335819e-15  2.19252808e-10 -1.28796217e-12  6.71552739e-15
 1.32880539e-05  1.32880539e-05  1.02390231e-06  4.07557208e-12 -6.46471322e-15  2.60890482e-10 -1.53243867e-12  7.98987893e-15
 1.38785944e-05  1.38785944e-05  1.16653921e-06  5.02344454e-12 -8.03162829e-15  3.10435909e-10 -1.82331083e-12  9.50596741e-15
 1.44953916e-05  1.44953916e-05  1.32904886e-06  6.20800868e-12 -9.97806253e-15  3.69392571e-10 -2.16938872e-12  1.13096667e-14
 1.51396020e-05  1.51396020e-05  1.51419648e-06  7.69308400e-12 -1.23957223e-14  4.39546960e-10 -2.58113702e-12  1.34554578e-14
 1.58124570e-05  1.58124570e-05  1.72513922e-06  9.56107593e-12 -1.53984846e-14  5.23027479e-10 -3.07101829e-12  1.60082118e-14
 1.65152236e-05  1.65152236e-05  1.96546813e-06  1.19186110e-11 -1.91275209e-14  6.22364565e-10 -3.65384224e-12  1.90450036e-14
 1.72492416e-05  1.72492416e-05  2.23928007e-06  1.49042143e-11 -2.37579604e-14  7.40571691e-10 -4.34723641e-12  2.26575549e-14
 1.80158974e-05  1.80158974e-05  2.55123788e-06  1.86982756e-11 -2.95067674e-14  8.81232820e-10 -5.17215273e-12  2.69548619e-14
 1.88166505e-05  1.88166505e-05  2.90665861e-06  2.35365146e-11 -3.66427575e-14  1.04861497e-09 -6.15351892e-12  3.20665742e-14
 1.96530166e-05  1.96530166e-05  3.31159619e-06  2.97276853e-11 -4.54985570e-14  1.24779412e-09 -7.32096483e-12  3.81467581e-14
 2.05265870e-05  2.05265870e-05  3.77295190e-06  3.76774096e-11 -5.64855412e-14  1.48481275e-09 -8.70972905e-12  4.53785949e-14
 2.14390181e-05  2.14390181e-05  4.29858543e-06  4.79197757e-11 -7.01116919e-14  1.76686003e-09 -1.03616922e-11  5.39797292e-14
 2.23920460e-05  2.23920460e-05  4.89745488e-06  6.11598289e-11 -8.70035072e-14  2.10249323e-09 -1.23266418e-11  6.42088157e-14
 2.33874804e-05  2.33874804e-05  5.57976406e-06  7.83302247e-11 -1.07931978e-13  2.50189466e-09 -1.46637334e-11  7.63730727e-14
 2.44272161e-05  2.44272161e-05  6.35714146e-06  1.00667417e-10 -1.33843717e-13  2.97718378e-09 -1.74432556e-11  9.08374048e-14
 2.55132302e-05  2.55132302e-05  7.24283405e-06  1.29813646e-10 -1.65897030e-13  3.54278278e-09 -2.07486839e-11  1.08035008e-13
 2.66475917e-05  2.66475917e-05  8.25193733e-06  1.67954186e-10 -2.05503431e-13  4.21585733e-09 -2.46791388e-11  1.28480053e-13
 2.78324609e-05  2.78324609e-05  9.40164909e-06  2.18001601e-10 -2.54373231e-13  5.01683601e-09 -2.93522550e-11  1.52782483e-13
 2.90700974e-05  2.90700974e-05  1.07115662e-05  2.83843928e-10 -3.14563460e-13  5.97003362e-09 -3.49075880e-11  1.81665566e-13
 3.03628620e-05  3.03628620e-05  1.22040160e-05  3.70678575e-10 -3.88522875e-13  7.10438856e-09 -4.15105913e-11  2.15986377e-13
 3.17132238e-05  3.17132238e-05  1.39044397e-05  4.85462516e-10 -4.79125535e-13  8.45434509e-09 -4.93573018e-11  2.56759918e-13
 3.31237631e-05  3.31237631e-05  1.58418247e-05  6.37518940e-10 -5.89676311e-13  1.00608997e-08 -5.86797912e-11  3.05187171e-13
 3.45971788e-05  3.45971788e-05  1.80492010e-05  8.39355957e-10 -7.23860829e-13  1.19728507e-08 -6.97525321e-11  3.62687881e-13
 3.55113636e-05  3.55113636e-05  1.95160164e-05  9.90996771e-10 -8.16946636e-13  1.32867669e-08 -7.73489291e-11  4.02125939e-13
 3.56652750e-05  3.56652750e-05  1.97714310e-05  1.01902338e-09 -8.33451653e-13  1.35192069e-08 -7.86916743e-11  4.09096213e-13
 3.59730977e-05  3.59730977e-05  2.02875606e-05  1.07671521e-09 -8.67004022e-13  1.39913667e-08 -8.14183693e-11  4.23250080e-13
 3.65887430e-05  3.65887430e-05  2.13455320e-05  1.20030777e-09 -9.36732246e-13  1.49713544e-08 -8.70733575e-11  4.52601388e-13
 3.74351860e-05  3.74351860e-05  2.28587484e-05  1.39015265e-09 -1.03848470e-12  1.64013821e-08 -9.53143737e-11  4.95368250e-13
 3.90683568e-05  3.90683568e-05  2.59778991e-05  1.83093959e-09 -1.25430243e-12  1.94507472e-08 -1.12843068e-10  5.86308921e-13
 4.06122190e-05  4.06122190e-05  2.91761986e-05  2.35605948e-09 -1.47971756e-12  2.27086976e-08 -1.31506117e-10  6.83103605e-13
 4.25701146e-05  4.25701146e-05  3.35966224e-05  3.20632791e-09 -1.79026807e-12  2.74125870e-08 -1.58335181e-10  8.22206342e-13
 4.43766865e-05  4.43766865e-05  3.80513857e-05  4.21696733e-09 -2.08937129e-12  3.23676185e-08 -1.86451316e-10  9.67941682e-13
 4.61996511e-05  4.61996511e-05  4.29277580e-05  5.50571580e-09 -2.38546596e-12  3.80175594e-08 -2.18331316e-10  1.13315580e-12
 4.78424491e-05  4.78424491e-05  4.76625191e-05  6.94661388e-09 -2.62440259e-12  4.37115674e-08 -2.50270028e-10  1.29866130e-12
 4.93603632e-05  4.93603632e-05  5.23341296e-05  8.55679177e-09 -2.79632630e-12  4.95167077e-08 -2.82637698e-10  1.46639603e-12
 5.07539593e-05  5.07539593e-05  5.68819504e-05  1.03093497e-08 -2.88608322e-12  5.53358326e-08 -3.14887410e-10  1.63354471e-12
 5.20459431e-05  5.20459431e-05  6.13257090e-05  1.22026830e-08 -2.88360836e-12  6.11732261e-08 -3.47041930e-10  1.80024353e-12
 5.32565306e-05  5.32565306e-05  6.56932181e-05  1.42418422e-08 -2.77838422e-12  6.70493388e-08 -3.79211422e-10  1.96708178e-12
 5.43995263e-05  5.43995263e-05  7.00019406e-05  1.64305368e-08 -2.55890124e-12  7.29753800e-08 -4.11453083e-10  2.13437479e-12
 5.54872727e-05  5.54872727e-05  7.42728717e-05  1.87770035e-08 -2.21209216e-12  7.89707945e-08 -4.43866904e-10  2.30266117e-12
 5.65767288e-05  5.65767288e-05  7.87205563e-05  2.14113322e-08 -1.69668660e-12  8.53379690e-08 -4.78064306e-10  2.48033821e-12
 5.76818537e-05  5.76818537e-05  8.34094764e-05  2.44032755e-08 -9.62166834e-13  9.21820981e-08 -5.14563314e-10  2.67014784e-12
 5.88072181e-05  5.88072181e-05  8.83712654e-05  2.78138325e-08  5.39058293e-14  9.95661975e-08 -5.53640019e-10  2.87359459e-12
 5.99551083e-05  5.99551083e-05  9.36304751e-05  3.17083904e-08  1.42976441e-12  1.07546060e-07 -5.95517706e-10  3.09193157e-12
 6.11237426e-05  6.11237426e-05  9.91941511e-05  3.61473954e-08  3.25783144e-12  1.16153045e-07 -6.40277569e-10  3.32569860e-12
 6.23142602e-05  6.23142602e-05  1.05083398e-04  4.12100841e-08  5.65647206e-12  1.25441785e-07 -6.88107533e-10  3.57602612e-12
 6.35256849e-05  6.35256849e-05  1.11309761e-04  4.69771584e-08  8.76761411e-12  1.35454005e-07 -7.39111283e-10  3.84364689e-12
 6.47592176e-05  6.47592176e-05  1.17896537e-04  5.35505028e-08  1.27718235e-11  1.46252362e-07 -7.93479326e-10  4.12980289e-12
 6.60145639e-05  6.60145639e-05  1.24860257e-04  6.10380720e-08  1.78874077e-11  1.57891078e-07 -8.51335436e-10  4.43545443e-12
 6.72927639e-05  6.72927639e-05  1.32225776e-04  6.95706621e-08  2.43891280e-11  1.70440885e-07 -9.12858131e-10  4.76193772e-12
 6.85938318e-05  6.85938318e-05  1.40013394e-04  7.92903906e-08  3.26109423e-11  1.83967831e-07 -9.78170301e-10  5.11040495e-12
 6.99186277e-05  6.99186277e-05  1.48249606e-04  9.03653595e-08  4.29698376e-11  1.98551821e-07 -1.04742466e-09  5.48230644e-12
 7.12673416e-05  7.12673416e-05  1.56958189e-04  1.02981401e-07  5.59745811e-11  2.14271476e-07 -1.12072405e-09  5.87900178e-12
 7.26407147e-05  7.26407147e-05  1.66167798e-04  1.17355219e-07  7.22569926e-11  2.31217855e-07 -1.19817917e-09  6.30211541e-12
 7.40390576e-05  7.40390576e-05  1.75905763e-04  1.33729057e-07  9.25899167e-11  2.49483645e-07 -1.27984937e-09  6.75327371e-12
 7.54630428e-05  7.54630428e-05  1.86203445e-04  1.52382918e-07  1.17929552e-10  2.69173335e-07 -1.36577918e-09  7.23437640e-12
 7.69130677e-05  7.69130677e-05  1.97091926e-04  1.73632000e-07  1.49447357e-10  2.90395577e-07 -1.45595224e-09  7.74743342e-12
 7.83897684e-05  7.83897684e-05  2.08605790e-04  1.97838617e-07  1.88589004e-10  3.13270807e-07 -1.55031106e-09  8.29478977e-12
 7.98936065e-05  7.98936065e-05  2.20780152e-04  2.25412407e-07  2.37127237e-10  3.37925938e-07 -1.64871859e-09  8.87905116e-12
 8.14252024e-05  8.14252024e-05  2.33653334e-04  2.56822612e-07  2.97245912e-10  3.64500170e-07 -1.75096388e-09  9.50329869e-12
 8.29850675e-05  8.29850675e-05  2.47264838e-04  2.92601205e-07  3.71624311e-10  3.93141422e-07 -1.85672645e-09  1.01711071e-11
 8.45738204e-05  8.45738204e-05  2.61657261e-04  3.33356239e-07  4.63559061e-10  4.24010864e-07 -1.96556910e-09  1.08867905e-11
 8.61920134e-05  8.61920134e-05  2.76874926e-04  3.79778235e-07  5.77095671e-10  4.57280666e-07 -2.07690081e-09  1.16555350e-11
 8.78402727e-05  8.78402727e-05  2.92965272e-04  4.32655389e-07  7.17207610e-10  4.93137648e-07 -2.18995637e-09  1.24837295e-11
 8.95191862e-05  8.95191862e-05  3.09977949e-04  4.92883745e-07  8.89998775e-10  5.31782040e-07 -2.30375347e-09  1.33792596e-11
 9.12293944e-05  9.12293944e-05  3.27965850e-04  5.61485225e-07  1.10296877e-09  5.73430558e-07 -2.41705761e-09  1.43520006e-11
 9.29715179e-05  9.29715179e-05  3.46984538e-04  6.39622348e-07  1.36532198e-09  6.18315953e-07 -2.52832859e-09  1.54143567e-11
 9.47462163e-05  9.47462163e-05  3.67093031e-04  7.28620229e-07  1.68836275e-09  6.66689740e-07 -2.63566752e-09  1.65820352e-11
 9.65541417e-05  9.65541417e-05  3.88353466e-04  8.29986921e-07  2.08596474e-09  7.18822404e-07 -2.73674704e-09  1.78749697e-11
 9.83959765e-05  9.83959765e-05  4.10831721e-04  9.45440821e-07  2.57516188e-09  7.75005946e-07 -2.82873554e-09  1.93185622e-11
 1.00272404e-04  1.00272404e-04  4.34597260e-04  1.07693806e-06  3.17685869e-09  8.35554655e-07 -2.90820397e-09  2.09452173e-11
 1.02184132e-04  1.02184132e-04  4.59723639e-04  1.22670712e-06  3.91671611e-09  9.00807623e-07 -2.97102013e-09  2.27963460e-11
 1.04131876e-04  1.04131876e-04  4.86288483e-04  1.39728523e-06  4.82622439e-09  9.71130017e-07 -3.01222278e-09  2.49248769e-11
 1.06116372e-04  1.06116372e-04  5.14373933e-04  1.59156245e-06  5.94403291e-09  1.04691568e-06 -3.02587610e-09  2.73984867e-11
 1.08138368e-04  1.08138368e-04  5.44066721e-04  1.81282956e-06  7.31756856e-09  1.12858891e-06 -3.00489874e-09  3.03036720e-11
 1.10077775e-04  1.10077775e-04  5.73584722e-04  2.04927770e-06  8.89711913e-09  1.21130386e-06 -2.94605507e-09  3.35316108e-11
 1.11896608e-04  1.11896608e-04  6.02205733e-04  2.29450777e-06  1.06508254e-08  1.29290493e-06 -2.85106064e-09  3.70302446e-11
 1.13595961e-04  1.13595961e-04  6.29779308e-04  2.54587117e-06  1.25644790e-08  1.37278231e-06 -2.72259978e-09  4.07886182e-11
 1.15181992e-04  1.15181992e-04  6.56249776e-04  2.80133668e-06  1.46244423e-08  1.45059690e-06 -2.56373680e-09  4.47969419e-11
 1.16672110e-04  1.16672110e-04  6.81774778e-04  3.06099493e-06  1.68322803e-08  1.52665597e-06 -2.37630028e-09  4.90736769e-11
 1.18080162e-04  1.18080162e-04  7.06484266e-04  3.32497407e-06  1.91903396e-08  1.60121979e-06 -2.16168445e-09  5.36369712e-11
 1.19502970e-04  1.19502970e-04  7.32041818e-04  3.61122696e-06  2.18721575e-08  1.67928939e-06 -1.90415524e-09  5.88375131e-11
 1.20925138e-04  1.20925138e-04  7.58186089e-04  3.91812890e-06  2.48868298e-08  1.76012567e-06 -1.60208733e-09  6.47095637e-11
 1.22379080e-04  1.22379080e-04  7.85539394e-04  4.25464516e-06  2.83525011e-08  1.84573223e-06 -1.24288807e-09  7.15051882e-11
 1.23843975e-04  1.23843975e-04  8.13744454e-04  4.61835780e-06  3.22801153e-08  1.93508531e-06 -8.24855492e-10  7.92725095e-11
 1.25336259e-04  1.25336259e-04  8.43150369e-04  5.01584494e-06  3.67809673e-08  2.02938538e-06 -3.35923470e-10  8.82650484e-11
 1.26841712e-04  1.26841712e-04  8.73511810e-04  5.44607770e-06  4.18895160e-08  2.12794653e-06  2.27492632e-10  9.85916404e-11
 1.28371207e-04  1.28371207e-04  9.05081544e-04  5.91505434e-06  4.77288589e-08  2.23169121e-06  8.78372070e-10  1.10549694e-10
 1.29915943e-04  1.29915943e-04  9.37713705e-04  6.42326534e-06  5.43644856e-08  2.34024868e-06  1.62292413e-09  1.24330926e-10
 1.31483235e-04  1.31483235e-04  9.71598512e-04  6.97651984e-06  6.19394848e-08  2.45436364e-06  2.47556012e-09  1.40301304e-10
 1.33067576e-04  1.33067576e-04  1.00665476e-03  7.57661566e-06  7.05553938e-08  2.57388163e-06  3.44542315e-09  1.58755897e-10
 1.34673818e-04  1.34673818e-04  1.04302817e-03  8.22941425e-06  8.03837098e-08  2.69942310e-06  4.54881917e-09  1.80157666e-10
 1.36298497e-04  1.36298497e-04  1.08068068e-03  8.93791477e-06  9.15693702e-08  2.83098761e-06  5.79819412e-09  2.04934129e-10
 1.37944842e-04  1.37944842e-04  1.11972832e-03  9.70828153e-06  1.04323140e-07  2.96911717e-06  7.21234816e-09  2.33683204e-10
