 time            time            v(n1)           v(n2)           v(n3)           i(L1)           i(L2)           i(L3)
 1.56250000e-10  1.56250000e-10  5.84889733e-12  1.63229177e-14  6.49844777e-17  3.60781125e-17 -2.12157278e-20  1.28297059e-21
 3.12500000e-10  3.12500000e-10  2.92444570e-11  8.16296669e-14  3.25024932e-16  2.16467599e-16 -1.27110654e-19  7.69866604e-21
 6.25000000e-10  6.25000000e-10  1.60259210e-10  4.47424959e-13  1.78200783e-15  1.54700667e-15 -9.06773788e-19  5.50317116e-20
 1.25000000e-09  1.25000000e-09  1.16344502e-09  3.24927059e-12  1.29453242e-14  1.98344046e-14 -1.15872610e-17  7.05788614e-19
 2.50000000e-09  2.50000000e-09  9.15259118e-09  2.55710262e-11  1.01904554e-13  3.05425904e-13 -1.77694624e-16  1.08706601e-17
 3.65926912e-09  3.65926912e-09  2.76258889e-08  7.71996049e-11  3.07677586e-13  1.24491736e-12 -7.22773814e-16  4.43106598e-17
 4.70985892e-09  4.70985892e-09  5.72332364e-08  1.59963086e-10  6.37541275e-13  3.12781048e-12 -1.81314583e-15  1.11328888e-16
 5.66141869e-09  5.66141869e-09  9.75594998e-08  2.72711609e-10  1.08688759e-12  6.16083951e-12 -3.56665398e-15  2.19279605e-16
 6.56705630e-09  6.56705630e-09  1.50376593e-07  4.20410385e-10  1.67546365e-12  1.07201158e-11 -6.19841710e-15  3.81541500e-16
 7.45201785e-09  7.45201785e-09  2.17846422e-07  6.09118562e-10  2.42735078e-12  1.72856113e-11 -9.98235857e-15  6.15182864e-16
 8.32386157e-09  8.32386157e-09  3.01749121e-07  8.43830872e-10  3.36235828e-12  2.63697035e-11 -1.52097214e-14  9.38415534e-16
 9.18088093e-09  9.18088093e-09  4.03070317e-07  1.12732173e-09  4.49141868e-12  3.84433636e-11 -2.21465974e-14  1.36796621e-15
 1.00204848e-08  1.00204848e-08  5.22312486e-07  1.46101468e-09  5.82005716e-12  5.39357055e-11 -3.10338856e-14  1.91905957e-15
 1.08418292e-08  1.08418292e-08  6.59840794e-07  1.84594935e-09  7.35224675e-12  7.32601881e-11 -4.21024910e-14  2.60634979e-15
 1.17294728e-08  1.17294728e-08  8.33715153e-07  2.33270673e-09  9.28901520e-12  9.96186755e-11 -5.71753959e-14  3.54361444e-15
 1.25333246e-08  1.25333246e-08  1.01547220e-06  2.84162634e-09  1.13131513e-11  1.29141730e-10 -7.40309968e-14  4.59317021e-15
 1.33750091e-08  1.33750091e-08  1.23233846e-06  3.44896402e-09  1.37276685e-11  1.66679445e-10 -9.54283430e-14  5.92732331e-15
 1.41481606e-08  1.41481606e-08  1.45697810e-06  4.07818566e-09  1.62280209e-11  2.07898967e-10 -1.18887826e-13  7.39195492e-15
 1.49444160e-08  1.49444160e-08  1.71533321e-06  4.80197537e-09  1.91027343e-11  2.57938101e-10 -1.47322940e-13  9.16947945e-15
 1.56250000e-08  1.56250000e-08  1.95896580e-06  5.48463465e-09  2.18127498e-11  3.07437929e-10 -1.75411154e-13  1.09273682e-14
 1.56996930e-08  1.56996930e-08  1.98712432e-06  5.56354163e-09  2.21259152e-11  3.13293792e-10 -1.78731717e-13  1.11353002e-14
 1.58490791e-08  1.58490791e-08  2.04408586e-06  5.72316504e-09  2.27593855e-11  3.25206909e-10 -1.85485820e-13  1.15583000e-14
 1.61478512e-08  1.61478512e-08  2.16113881e-06  6.05119949e-09  2.40609896e-11  3.50021939e-10 -1.99548432e-13  1.24393301e-14
 1.65466341e-08  1.65466341e-08  2.32419137e-06  6.50818304e-09  2.58737677e-11  3.85335209e-10 -2.19546202e-13  1.36929047e-14
 1.72777812e-08  1.72777812e-08  2.64421487e-06  7.40522892e-09  2.94305597e-11  4.57078213e-10 -2.60125496e-13  1.62390317e-14
 1.79672245e-08  1.79672245e-08  2.97182979e-06  8.32371142e-09  3.30701782e-11  5.33601689e-10 -3.03345030e-13  1.89539197e-14
 1.88354800e-08  1.88354800e-08  3.42168821e-06  9.58514951e-09  3.80653231e-11  6.43345552e-10 -3.65225124e-13  2.28458861e-14
 1.96382267e-08  1.96382267e-08  3.87607069e-06  1.08595328e-08  4.31078071e-11  7.59181928e-10 -4.30426754e-13  2.69521529e-14
 2.05605792e-08  2.05605792e-08  4.44588328e-06  1.24579985e-08  4.94272013e-11  9.10952354e-10 -5.15698110e-13  3.23296823e-14
 2.14490489e-08  2.14490489e-08  5.04506629e-06  1.41392335e-08  5.60675529e-11  1.07768301e-09 -6.09194656e-13  3.82342038e-14
 2.24349881e-08  2.24349881e-08  5.77038406e-06  1.61748687e-08  6.40993285e-11  1.28851079e-09 -7.27179737e-13  4.56960639e-14
 2.34145713e-08  2.34145713e-08  6.55664610e-06  1.83820975e-08  7.27981855e-11  1.52724842e-09 -8.60499074e-13  5.41403977e-14
 2.44787442e-08  2.44787442e-08  7.48823311e-06  2.09979773e-08  8.30945767e-11  1.82272646e-09 -1.02513268e-12  6.45843854e-14
 2.55561288e-08  2.55561288e-08  8.51705389e-06  2.38876917e-08  9.44530232e-11  2.16361683e-09 -1.21461801e-12  7.66242674e-14
 2.67101684e-08  2.67101684e-08  9.71890077e-06  2.72643879e-08  1.07705328e-10  2.57962864e-09 -1.44527967e-12  9.13049149e-14
 2.78921830e-08  2.78921830e-08  1.10615217e-05  3.10377742e-08  1.22489566e-10  3.06515870e-09 -1.71377316e-12  1.08422836e-13
 2.91469079e-08  2.91469079e-08  1.26157422e-05  3.54072890e-08  1.39577727e-10  3.65237045e-09 -2.03758601e-12  1.29104428e-13
 3.04415590e-08  3.04415590e-08  1.43646618e-05  4.03258892e-08  1.58774010e-10  4.34276179e-09 -2.41716915e-12  1.53392586e-13
 3.18080588e-08  3.18080588e-08  1.63775885e-05  4.59890583e-08  1.80826608e-10  5.17302178e-09 -2.87222313e-12  1.82565122e-13
 3.32247288e-08  3.32247288e-08  1.86531679e-05  5.23936714e-08  2.05704879e-10  6.15378393e-09 -3.40798327e-12  2.16978805e-13
 3.47147275e-08  3.47147275e-08  2.12627556e-05  5.97413851e-08  2.34169109e-10  7.32908921e-09 -4.04776213e-12  2.58156923e-13
 3.62641667e-08  3.62641667e-08  2.42215541e-05  6.80760070e-08  2.66360177e-10  8.72169613e-09 -4.80300979e-12  3.06868065e-13
 3.78902545e-08  3.78902545e-08  2.76068915e-05  7.76165730e-08  3.03088117e-10  1.03869315e-08 -5.70254963e-12  3.65009851e-13
 3.95846154e-08  3.95846154e-08  3.14524911e-05  8.84595921e-08  3.44679515e-10  1.23640342e-08 -6.76608885e-12  4.33903202e-13
 4.13604714e-08  4.13604714e-08  3.58461775e-05  1.00854473e-07  3.92035000e-10  1.47251494e-08 -8.03055927e-12  5.15997923e-13
 4.32134030e-08  4.32134030e-08  4.08432870e-05  1.14959485e-07  4.45689246e-10  1.75323014e-08 -9.52680919e-12  6.13366837e-13
 4.51540249e-08  4.51540249e-08  4.65475507e-05  1.31070041e-07  5.06678701e-10  2.08822908e-08 -1.13034456e-11  7.29258239e-13
 4.71808186e-08  4.71808186e-08  5.30403873e-05  1.49419280e-07  5.75777014e-10  2.48690268e-08 -1.34064968e-11  8.66778188e-13
 4.93027706e-08  4.93027706e-08  6.04480861e-05  1.70367972e-07  6.54206954e-10  2.96251267e-08 -1.59011477e-11  1.03031493e-12
 5.15205605e-08  5.15205605e-08  6.88843407e-05  1.94242349e-07  7.43020523e-10  3.52895082e-08 -1.88542258e-11  1.22440195e-12
 5.38422542e-08  5.38422542e-08  7.85063475e-05  2.21493003e-07  8.43682843e-10  4.20465787e-08 -2.23542273e-11  1.45504040e-12
 5.62702781e-08  5.62702781e-08  8.94684592e-05  2.52564067e-07  9.57571349e-10  5.00992062e-08 -2.64965484e-11  1.72874038e-12
 5.88123060e-08  5.88123060e-08  1.01969414e-04  2.88027360e-07  1.08645412e-09  5.97065513e-08 -3.14022199e-11  2.05376943e-12
 6.14722429e-08  6.14722429e-08  1.16215431e-04  3.28478301e-07  1.23208648e-09  7.11628330e-08 -3.72058815e-11  2.43937498e-12
 6.42577866e-08  6.42577866e-08  1.32460477e-04  3.74650725e-07  1.39660152e-09  8.48351321e-08 -4.40736754e-11  2.89699006e-12
 6.71741922e-08  6.71741922e-08  1.50977525e-04  4.27336033e-07  1.58218515e-09  1.01148794e-07 -5.21940443e-11  3.43964623e-12
 7.02295361e-08  7.02295361e-08  1.72093527e-04  4.87483532e-07  1.79139202e-09  1.20626977e-07 -6.17952773e-11  4.08317171e-12
 7.34304113e-08  7.34304113e-08  1.96167912e-04  5.56140385e-07  2.02688161e-09  1.43884169e-07 -7.31392969e-11  4.84581122e-12
 7.67422877e-08  7.67422877e-08  2.23254205e-04  6.33485801e-07  2.28813271e-09  1.71286560e-07 -8.63557113e-11  5.73704903e-12
 8.02380278e-08  8.02380278e-08  2.54328885e-04  7.22341952e-07  2.58321603e-09  2.04215726e-07 -1.02046360e-10  6.79842956e-12
 8.38736297e-08  8.38736297e-08  2.89443322e-04  8.22897413e-07  2.91094057e-09  2.43202436e-07 -1.20381890e-10  8.04265232e-12
 8.77065145e-08  8.77065145e-08  3.29649981e-04  9.38217396e-07  3.27903861e-09  2.89990119e-07 -1.42076650e-10  9.51958682e-12
 9.17066641e-08  9.17066641e-08  3.75206314e-04  1.06910364e-06  3.68726807e-09  3.45574284e-07 -1.67457125e-10  1.12531457e-11
 9.59183230e-08  9.59183230e-08  4.27256011e-04  1.21891993e-06  4.14265871e-09  4.12189159e-07 -1.97370200e-10  1.33032131e-11
 1.00325066e-07  1.00325066e-07  4.86325781e-04  1.38927863e-06  4.64582543e-09  4.91525845e-07 -2.32352736e-10  1.57090700e-11
 1.04962998e-07  1.04962998e-07  5.53716849e-04  1.58405145e-06  5.20291162e-09  5.86563137e-07 -2.73431744e-10  1.85443998e-11
 1.09826533e-07  1.09826533e-07  6.30275241e-04  1.80583124e-06  5.81479066e-09  6.99992160e-07 -3.21400920e-10  2.18677780e-11
 1.14947343e-07  1.14947343e-07  7.17538475e-04  2.05925534e-06  6.48618509e-09  8.35914293e-07 -3.77516668e-10  2.57710222e-11
 1.20328825e-07  1.20328825e-07  8.16737247e-04  2.34812655e-06  7.21720554e-09  9.98476328e-07 -4.42870819e-10  3.03361870e-11
 1.26001308e-07  1.26001308e-07  9.29742565e-04  2.67817910e-06  8.01008355e-09  1.19347663e-06 -5.18987086e-10  3.56776809e-11
 1.31976541e-07  1.31976541e-07  1.05826104e-03  3.05475618e-06  8.86251992e-09  1.42722441e-06 -6.07273399e-10  4.19049455e-11
 1.38286522e-07  1.38286522e-07  1.20462130e-03  3.48513278e-06  9.77235360e-09  1.70811262e-06 -7.09515596e-10  4.91584867e-11
 1.44952037e-07  1.44952037e-07  1.37113283e-03  3.97667190e-06  1.07322239e-08  2.04574163e-06 -8.27383184e-10  5.75771269e-11
 1.52010330e-07  1.52010330e-07  1.56074589e-03  4.53881021e-06  1.17323743e-08  2.45255404e-06 -9.62799814e-10  6.73275614e-11
 1.59493716e-07  1.59493716e-07  1.77655246e-03  5.18164604e-06  1.27561292e-08  2.94332163e-06 -1.11745243e-09  7.85744484e-11
 1.67449983e-07  1.67449983e-07  2.02235313e-03  5.91770202e-06  1.37808789e-08  3.53702558e-06 -1.29297698e-09  9.15020474e-11
 1.75928748e-07  1.75928748e-07  2.30229137e-03  6.76094954e-06  1.47737923e-08  4.25695058e-06 -1.49035734e-09  1.06283988e-10
 1.84998009e-07  1.84998009e-07  2.62137041e-03  7.72851599e-06  1.56907750e-08  5.13323705e-06 -1.70975430e-09  1.23093242e-10
 1.94737929e-07  1.94737929e-07  2.98524246e-03  8.84028187e-06  1.64715374e-08  6.20426024e-06 -1.94949110e-09  1.42064900e-10
 2.05258391e-07  2.05258391e-07  3.40076843e-03  1.01209248e-05  1.70356368e-08  7.52110180e-06 -2.20499999e-09  1.63284745e-10
 2.16705015e-07  2.16705015e-07  3.87610367e-03  1.16007285e-05  1.72747428e-08  9.15256756e-06 -2.46639919e-09  1.86727812e-10
 2.29292441e-07  2.29292441e-07  4.42166895e-03  1.33194944e-05  1.70418057e-08  1.11966016e-05 -2.71453158e-09  2.12194848e-10
 2.43354838e-07  2.43354838e-07  5.05142986e-03  1.53322303e-05  1.61303781e-08  1.38009528e-05 -2.91248357e-09  2.39162328e-10
 2.57523645e-07  2.57523645e-07  5.69754510e-03  1.74321739e-05  1.45078255e-08  1.67747712e-05 -2.98939252e-09  2.63492427e-10
 2.71873645e-07  2.71873645e-07  6.35181035e-03  1.96004931e-05  1.21732238e-08  2.01463733e-05 -2.89636736e-09  2.83876658e-10
 2.86121317e-07  2.86121317e-07  6.98819507e-03  2.17552241e-05  9.22014124e-09  2.38472412e-05 -2.58591890e-09  2.98579055e-10
 3.00455428e-07  3.00455428e-07  7.60085524e-03  2.38802362e-05  5.69747674e-09  2.79132549e-05 -2.00524551e-09  3.06600906e-10
 3.14790135e-07  3.14790135e-07  8.17076457e-03  2.59127725e-05  1.73429861e-09  3.23023872e-05 -1.10841725e-09  3.06805072e-10
 3.29013755e-07  3.29013755e-07  8.67855710e-03  2.77832668e-05 -2.50996602e-09  3.69478167e-05  1.34135644e-10  2.98491170e-10
 3.43000681e-07  3.43000681e-07  9.10672368e-03  2.94259043e-05 -6.85114301e-09  4.17619285e-05  1.72953109e-09  2.81532614e-10
 3.57271630e-07  3.57271630e-07  9.45512496e-03  3.08397556e-05 -1.13159503e-08  4.68792161e-05  3.75917059e-09  2.55009224e-10
 3.71089147e-07  3.71089147e-07  9.69281535e-03  3.18964964e-05 -1.55560927e-08  5.19806629e-05  6.11528027e-09  2.20497781e-10
 3.85169161e-07  3.85169161e-07  9.81963716e-03  3.25938239e-05 -1.96892822e-08  5.72669288e-05  8.89780174e-09  1.76711586e-10
 3.98957208e-07  3.98957208e-07  9.81773452e-03  3.28449225e-05 -2.34743674e-08  6.24643585e-05  1.19625958e-08  1.25951024e-10
 4.13047088e-07  4.13047088e-07  9.67404499e-03  3.25992176e-05 -2.70144836e-08  6.77216595e-05  1.53850497e-08  6.68210091e-11
 4.27141107e-07  4.27141107e-07  9.37528145e-03  3.17890095e-05 -3.01862887e-08  7.28438988e-05  1.90228747e-08  1.32910162e-12
 4.41807895e-07  4.41807895e-07  8.88855251e-03  3.02927451e-05 -3.30740762e-08  7.79327497e-05  2.29266560e-08 -7.23060918e-11
 4.56962119e-07  4.56962119e-07  8.18718306e-03  2.80034494e-05 -3.55987638e-08  8.28203365e-05  2.69490578e-08 -1.52762293e-10
 4.72587119e-07  4.72587119e-07  7.24444838e-03  2.48185028e-05 -3.77159542e-08  8.73379072e-05  3.09208581e-08 -2.38658666e-10
 4.88212119e-07  4.88212119e-07  6.07329205e-03  2.07827409e-05 -3.93410262e-08  9.11908937e-05  3.45441345e-08 -3.25775237e-10
 5.03837119e-07  5.03837119e-07  4.67158872e-03  1.59040086e-05 -4.04690935e-08  9.42408956e-05  3.76560112e-08 -4.12373421e-10
 5.19462119e-07  5.19462119e-07  3.04093742e-03  1.02116750e-05 -4.10868188e-08  9.63491817e-05  4.01142150e-08 -4.96806371e-10
 5.35087119e-07  5.35087119e-07  1.18690531e-03  3.75502874e-06 -4.11731612e-08  9.73794249e-05  4.18073421e-08 -5.77561582e-10
 5.45503776e-07  5.45503776e-07 -1.69411119e-04 -9.46769129e-07 -4.09232093e-08  9.74111382e-05  4.24762744e-08 -6.28766498e-10
 5.54718326e-07  5.54718326e-07 -1.44607880e-03 -5.35428393e-06 -4.05064125e-08  9.69658125e-05  4.27434411e-08 -6.71945024e-10
 5.64426603e-07  5.64426603e-07 -2.86526505e-03 -1.02348604e-05 -3.98894411e-08  9.59834103e-05  4.26824968e-08 -7.14987672e-10
 5.75679510e-07  5.75679510e-07 -4.59917787e-03 -1.61881283e-05 -3.90324435e-08  9.41470357e-05  4.21517884e-08 -7.61414419e-10
 5.87807256e-07  5.87807256e-07 -6.56574084e-03 -2.29461286e-05 -3.80405620e-08  9.12857505e-05  4.09913451e-08 -8.06971803e-10
 6.01100735e-07  6.01100735e-07 -8.82433318e-03 -3.07521421e-05 -3.70560950e-08  8.70476387e-05  3.89459639e-08 -8.51260926e-10
 6.14897178e-07  6.14897178e-07 -1.12643814e-02 -3.92990109e-05 -3.64343739e-08  8.13806417e-05  3.58340180e-08 -8.90740991e-10
 6.29403476e-07  6.29403476e-07 -1.39119659e-02 -4.88075585e-05 -3.66715168e-08  7.39817616e-05  3.12260212e-08 -9.24996120e-10
 6.44230155e-07  6.44230155e-07 -1.66765691e-02 -5.91575715e-05 -3.85271520e-08  6.48576208e-05  2.46760424e-08 -9.52351425e-10
 6.55936514e-07  6.55936514e-07 -1.88821743e-02 -6.78634415e-05 -4.16966262e-08  5.65246384e-05  1.78131157e-08 -9.68603650e-10
 6.65601239e-07  6.65601239e-07 -2.07058416e-02 -7.54790473e-05 -4.58731671e-08  4.88906823e-05  1.07124937e-08 -9.78601884e-10
 6.74114948e-07  6.74114948e-07 -2.23056819e-02 -8.25718215e-05 -5.10626353e-08  4.16017326e-05  3.11639422e-09 -9.84980178e-10
 6.82131066e-07  6.82131066e-07 -2.37994042e-02 -8.96390715e-05 -5.75480703e-08  3.42592060e-05 -5.44166158e-09 -9.89043706e-10
 6.89899812e-07  6.89899812e-07 -2.52292936e-02 -9.69083982e-05 -6.56075867e-08  2.67045436e-05 -1.53052346e-08 -9.91332942e-10
 6.96753472e-07  6.96753472e-07 -2.64717769e-02 -1.03713875e-04 -7.44008090e-08  1.96863466e-05 -2.55190908e-08 -9.92133306e-10
 7.02133257e-07  7.02133257e-07 -2.74320620e-02 -1.09343149e-04 -8.25464280e-08  1.39488393e-05 -3.46745761e-08 -9.92042231e-10
 7.06714276e-07  7.06714276e-07 -2.82377667e-02 -1.14350554e-04 -9.04153831e-08  8.90728112e-06 -4.33587976e-08 -9.91520903e-10
 7.11237882e-07  7.11237882e-07 -2.90211922e-02 -1.19511416e-04 -9.91292088e-08  3.79058007e-06 -5.28276727e-08 -9.90656634e-10
 7.15887886e-07  7.15887886e-07 -2.98125854e-02 -1.25054912e-04 -1.09130039e-07 -1.60974344e-06 -6.35834992e-08 -9.89459586e-10
 7.21854253e-07  7.21854253e-07 -3.08051287e-02 -1.32545884e-04 -1.23620955e-07 -8.74275558e-06 -7.90799395e-08 -9.87561078e-10
 7.28521653e-07  7.28521653e-07 -3.18807349e-02 -1.41452342e-04 -1.42166568e-07 -1.69773283e-05 -9.89226281e-08 -9.85098434e-10
 7.36319054e-07  7.36319054e-07 -3.30887635e-02 -1.52628101e-04 -1.67199138e-07 -2.69467702e-05 -1.25966013e-07 -9.81988946e-10
 7.43969234e-07  7.43969234e-07 -3.42164338e-02 -1.64420965e-04 -1.95410650e-07 -3.70675468e-05 -1.57035610e-07 -9.78937758e-10
 7.52094985e-07  7.52094985e-07 -3.53454680e-02 -1.77858830e-04 -2.29410444e-07 -4.81649917e-05 -1.95596455e-07 -9.75964420e-10
 7.60155682e-07  7.60155682e-07 -3.63891306e-02 -1.92096142e-04 -2.67174166e-07 -5.95041580e-05 -2.40163216e-07 -9.73519032e-10
 7.68761933e-07  7.68761933e-07 -3.74121411e-02 -2.08216193e-04 -3.11629739e-07 -7.19446981e-05 -2.95435665e-07 -9.71651785e-10
 7.77707159e-07  7.77707159e-07 -3.83674374e-02 -2.25814239e-04 -3.61718046e-07 -8.52049571e-05 -3.62068458e-07 -9.70592695e-10
 7.87682803e-07  7.87682803e-07 -3.92926063e-02 -2.46118809e-04 -4.20910887e-07 -1.00338293e-04 -4.48247196e-07 -9.70278496e-10
 7.96906890e-07  7.96906890e-07 -4.00076305e-02 -2.65113698e-04 -4.77109057e-07 -1.14607081e-04 -5.39583703e-07 -9.70310320e-10
 8.05602793e-07  8.05602793e-07 -4.05505439e-02 -2.82751818e-04 -5.29538011e-07 -1.28255671e-04 -6.36143969e-07 -9.69873721e-10
 8.13941200e-07  8.13941200e-07 -4.09451888e-02 -2.98931023e-04 -5.77374844e-07 -1.41480128e-04 -7.38168696e-07 -9.68047126e-10
 8.22125758e-07  8.22125758e-07 -4.12070493e-02 -3.13599253e-04 -6.19987311e-07 -1.54549835e-04 -8.46911101e-07 -9.63681265e-10
 8.31076148e-07  8.31076148e-07 -4.13449150e-02 -3.27602083e-04 -6.59078629e-07 -1.68892865e-04 -9.74720575e-07 -9.54113226e-10
 8.39319272e-07  8.39319272e-07 -4.13297563e-02 -3.38029746e-04 -6.85888488e-07 -1.82103883e-04 -1.09955414e-06 -9.38928540e-10
 8.48228306e-07  8.48228306e-07 -4.11548589e-02 -3.45950735e-04 -7.02350308e-07 -1.96328902e-04 -1.24044986e-06 -9.13012306e-10
 8.56653123e-07  8.56653123e-07 -4.08336931e-02 -3.49658710e-04 -7.03810164e-07 -2.09679308e-04 -1.37750022e-06 -8.76785707e-10
 8.65813610e-07  8.65813610e-07 -4.03080749e-02 -3.48933576e-04 -6.87778259e-07 -2.24021579e-04 -1.52806210e-06 -8.21112761e-10
 8.74465193e-07  8.74465193e-07 -3.96393110e-02 -3.43254102e-04 -6.54324613e-07 -2.37343465e-04 -1.66902726e-06 -7.49847472e-10
 8.83450609e-07  8.83450609e-07 -3.87641950e-02 -3.31886672e-04 -5.99836962e-07 -2.50886259e-04 -1.81098686e-06 -6.53321657e-10
 8.92149750e-07  8.92149750e-07 -3.77391709e-02 -3.15420898e-04 -5.27774561e-07 -2.63652942e-04 -1.94099702e-06 -5.35164080e-10
 9.01201847e-07  9.01201847e-07 -3.64847750e-02 -2.92602467e-04 -4.33266087e-07 -2.76511726e-04 -2.06511841e-06 -3.83753598e-10
 9.10238877e-07  9.10238877e-07 -3.50400369e-02 -2.64247046e-04 -3.20525680e-07 -2.88849064e-04 -2.17434333e-06 -2.01627677e-10
 9.19769576e-07  9.19769576e-07 -3.33073350e-02 -2.28746596e-04 -1.84255230e-07 -3.01243137e-04 -2.27010633e-06  2.52862899e-11
 9.27386168e-07  9.27386168e-07 -3.17683882e-02 -1.96619878e-04 -6.45416893e-08 -3.10644480e-04 -2.33026758e-06  2.32540050e-10
 9.33717047e-07  9.33717047e-07 -3.03852403e-02 -1.67676546e-04  4.07450562e-08 -3.18088089e-04 -2.36805932e-06  4.22081470e-10
 9.39543490e-07  9.39543490e-07 -2.90293141e-02 -1.39470570e-04  1.41127949e-07 -3.24619009e-04 -2.39230744e-06  6.09912031e-10
 9.44816242e-07  9.44816242e-07 -2.77341276e-02 -1.12839213e-04  2.33920242e-07 -3.30249376e-04 -2.40510633e-06  7.90414240e-10
 9.49795816e-07  9.49795816e-07 -2.64520074e-02 -8.68832498e-05  3.22485408e-07 -3.35309839e-04 -2.40892766e-06  9.69464559e-10
 9.54410831e-07  9.54410831e-07 -2.52130773e-02 -6.22558566e-05  4.04770870e-07 -3.39767155e-04 -2.40512330e-06  1.14227035e-09
 9.58500682e-07  9.58500682e-07 -2.40747670e-02 -4.00635965e-05  4.77422246e-07 -3.43523093e-04 -2.39575056e-06  1.30043899e-09
 9.61916217e-07  9.61916217e-07 -2.30953403e-02 -2.13238839e-05  5.37630179e-07 -3.46515546e-04 -2.38355993e-06  1.43580331e-09
 9.64768336e-07  9.64768336e-07 -2.22575739e-02 -5.56698955e-06  5.87418852e-07 -3.48911142e-04 -2.37032135e-06  1.55089218e-09
