 time            time            v(n1)           v(n2)           v(n3)           i(L1)           i(L2)           i(L3)
 1.56250000e-10  1.56250000e-10  5.80118004e-12  1.15566796e-13  3.31507173e-15  3.57801704e-17  1.14142278e-18  5.38469231e-20
 3.12500000e-10  3.12500000e-10  2.90050402e-11  5.79548290e-13  1.66705817e-14  2.14674771e-16  6.86857094e-18  3.24692735e-19
 6.25000000e-10  6.25000000e-10  1.58942232e-10  3.18615547e-12  9.19799639e-14  1.53415039e-15  4.92552624e-17  2.33521257e-18
 1.25000000e-09  1.25000000e-09  1.15383985e-09  2.32218971e-11  6.73040909e-13  1.96687674e-14  6.34609905e-16  3.02039027e-17
 2.50000000e-09  2.50000000e-09  9.07681937e-09  1.83111007e-10  5.31932941e-12  3.02867369e-13  9.80226692e-15  4.67639283e-16
 3.66015625e-09  3.66015625e-09  2.74173281e-08  5.53478008e-10  1.60880719e-11  1.23573517e-12  4.00262821e-14  1.91065216e-15
 4.71229345e-09  4.71229345e-09  5.68476016e-08  1.14794265e-09  3.33750481e-11  3.10811519e-12  1.00711316e-13  4.80864438e-15
 5.66577120e-09  5.66577120e-09  9.69745674e-08  1.95855921e-09  5.69472292e-11  6.12808307e-12  1.98608843e-13  9.48410563e-15
 6.57346588e-09  6.57346588e-09  1.49567024e-07  3.02103189e-09  8.78398162e-11  1.06717955e-11  3.45916314e-13  1.65193883e-14
 7.46049034e-09  7.46049034e-09  2.16777462e-07  4.37879979e-09  1.27311482e-10  1.72186315e-11  5.58175537e-13  2.66562655e-14
 8.33434750e-09  8.33434750e-09  3.00378429e-07  6.06760304e-09  1.76395257e-10  2.62803109e-11  8.51972818e-13  4.06859342e-14
 9.19331992e-09  9.19331992e-09  4.01353282e-07  8.10721428e-09  2.35658374e-10  3.83275170e-11  1.24255807e-12  5.93351993e-14
 1.00348216e-08  1.00348216e-08  5.20205232e-07  1.05076860e-08  3.05384239e-10  5.37893851e-11  1.74382725e-12  8.32655881e-14
 1.08580150e-08  1.08580150e-08  6.57300573e-07  1.32762876e-08  3.85774367e-10  7.30794961e-11  2.36916468e-12  1.13113548e-13
 1.17477464e-08  1.17477464e-08  8.30666788e-07  1.67768496e-08  4.87375544e-10  9.93987030e-11  3.22228929e-12  1.53825028e-13
 1.25534030e-08  1.25534030e-08  1.01189244e-06  2.04355082e-08  5.93518010e-10  1.28879216e-10  4.17778436e-12  1.99410734e-13
 1.33970318e-08  1.33970318e-08  1.22815748e-06  2.48007722e-08  7.20099563e-10  1.66370143e-10  5.39275769e-12  2.57360650e-13
 1.41719001e-08  1.41719001e-08  1.45217086e-06  2.93215709e-08  8.51125681e-10  2.07539116e-10  6.72674983e-12  3.20969664e-13
 1.49699604e-08  1.49699604e-08  1.70983346e-06  3.45203859e-08  1.00172372e-09  2.57523790e-10  8.34616422e-12  3.98165719e-13
 1.56250000e-08  1.56250000e-08  1.94274958e-06  3.92189696e-08  1.13776257e-09  3.04875391e-10  9.88005837e-12  4.71264346e-13
 1.56998575e-08  1.56998575e-08  1.97073665e-06  3.97834930e-08  1.15410316e-09  3.10695157e-10  1.00685696e-11  4.80246732e-13
 1.58495726e-08  1.58495726e-08  2.02735279e-06  4.09254582e-08  1.18715601e-09  3.22535278e-10  1.04520821e-11  4.98520047e-13
 1.61490027e-08  1.61490027e-08  2.14370281e-06  4.32721201e-08  1.25506609e-09  3.47200435e-10  1.12509716e-11  5.36581322e-13
 1.65493871e-08  1.65493871e-08  2.30609164e-06  4.65469847e-08  1.34981160e-09  3.82371146e-10  1.23900414e-11  5.90841232e-13
 1.72823836e-08  1.72823836e-08  2.62440352e-06  5.29651215e-08  1.53540830e-09  4.53739994e-10  1.47011406e-11  7.00901038e-13
 1.79715490e-08  1.79715490e-08  2.94933525e-06  5.95151630e-08  1.72470547e-09  5.29649002e-10  1.71588319e-11  8.17901137e-13
 1.88408533e-08  1.88408533e-08  3.39623796e-06  6.85214050e-08  1.98480580e-09  6.38690520e-10  2.06885235e-11  9.85866059e-13
 1.96432402e-08  1.96432402e-08  3.84689347e-06  7.76004594e-08  2.24680676e-09  7.53596635e-10  2.44072079e-11  1.16274484e-12
 2.05663569e-08  2.05663569e-08  4.41275323e-06  8.89965777e-08  2.57539570e-09  9.04340128e-10  2.92844658e-11  1.39461601e-12
 2.14546577e-08  2.14546577e-08  5.00717705e-06  1.00963502e-07  2.92012531e-09  1.06977484e-09  3.46355848e-11  1.64887747e-12
 2.24412240e-08  2.24412240e-08  5.72732767e-06  1.15455634e-07  3.33717812e-09  1.27913642e-09  4.14055080e-11  1.97036278e-12
 2.34207920e-08  2.34207920e-08  6.50748297e-06  1.31148258e-07  3.78828123e-09  1.51606017e-09  4.90641483e-11  2.33381394e-12
 2.44855023e-08  2.44855023e-08  7.43231584e-06  1.49741896e-07  4.32213287e-09  1.80944568e-09  5.85444835e-11  2.78339386e-12
 2.55629826e-08  2.55629826e-08  8.45325533e-06  1.70256688e-07  4.91036588e-09  2.14778183e-09  6.94729779e-11  3.30124218e-12
 2.67175045e-08  2.67175045e-08  9.64628817e-06  1.94215367e-07  5.59635369e-09  2.56081211e-09  8.28083083e-11  3.93259405e-12
 2.78997001e-08  2.78997001e-08  1.09787128e-05  2.20956003e-07  6.36078167e-09  3.04273548e-09  9.83605060e-11  4.66820643e-12
 2.91548784e-08  2.91548784e-08  1.25214517e-05  2.51895490e-07  7.24370596e-09  3.62570622e-09  1.17163733e-10  5.55666920e-12
 3.04497794e-08  3.04497794e-08  1.42571624e-05  2.86677925e-07  8.23440968e-09  4.31099654e-09  1.39254487e-10  6.59928386e-12
 3.18167226e-08  3.18167226e-08  1.62551504e-05  3.26682079e-07  9.37146930e-09  5.13523008e-09  1.65807433e-10  7.85093899e-12
 3.32337004e-08  3.32337004e-08  1.85136030e-05  3.71859074e-07  1.06526283e-08  6.10876934e-09  1.97148709e-10  9.32629031e-12
 3.47241459e-08  3.47241459e-08  2.11037669e-05  4.23618431e-07  1.21167823e-08  7.27551511e-09  2.34681586e-10  1.10904596e-11
 3.62739433e-08  3.62739433e-08  2.40403453e-05  4.82234401e-07  1.37703474e-08  8.65788527e-09  2.79114176e-10  1.31755134e-11
 3.79004910e-08  3.79004910e-08  2.74004370e-05  5.49221563e-07  1.56543831e-08  1.03109648e-08  3.32200039e-10  1.56621544e-11
 3.95952558e-08  3.95952558e-08  3.12171955e-05  6.25210449e-07  1.77845472e-08  1.22735480e-08  3.95162867e-10  1.86056399e-11
 4.13715915e-08  4.13715915e-08  3.55780757e-05  7.11904324e-07  2.02060065e-08  1.46173977e-08  4.70276113e-10  2.21095669e-11
 4.32249694e-08  4.32249694e-08  4.05377381e-05  8.10342525e-07  2.29445788e-08  1.74039412e-08  5.59470816e-10  2.62605202e-11
 4.51660958e-08  4.51660958e-08  4.61993737e-05  9.22514182e-07  2.60516098e-08  2.07293994e-08  6.65778040e-10  3.11950087e-11
 4.71933763e-08  4.71933763e-08  5.26435762e-05  1.04994245e-06  2.95643208e-08  2.46868629e-08  7.92110013e-10  3.70422870e-11
 4.93158605e-08  4.93158605e-08  5.99958834e-05  1.19501790e-06  3.35424337e-08  2.94080908e-08  9.42589822e-10  4.39854800e-11
 5.15341757e-08  5.15341757e-08  6.83689597e-05  1.35984897e-06  3.80360797e-08  3.50308611e-08  1.12150071e-09  5.22121793e-11
 5.38564310e-08  5.38564310e-08  7.79189832e-05  1.54736710e-06  4.31156206e-08  4.17383260e-08  1.33452936e-09  6.19707976e-11
 5.62850162e-08  5.62850162e-08  8.87990032e-05  1.76039875e-06  4.88457354e-08  4.97317496e-08  1.58788392e-09  7.35287026e-11
 5.88276349e-08  5.88276349e-08  1.01206398e-04  2.00258546e-06  5.53095942e-08  5.92684691e-08  1.88948068e-09  8.72248625e-11
 6.14881659e-08  6.14881659e-08  1.15345720e-04  2.27764108e-06  6.25879363e-08  7.06404278e-08  2.24823878e-09  1.03435439e-10
 6.42743271e-08  6.42743271e-08  1.31469138e-04  2.59012251e-06  7.07784837e-08  8.42120651e-08  2.67524586e-09  1.22623810e-10
 6.71913546e-08  6.71913546e-08  1.49847473e-04  2.94484244e-06  7.99789508e-08  1.00405476e-07  3.18324700e-09  1.45313675e-10
 7.02473375e-08  7.02473375e-08  1.70805310e-04  3.34752020e-06  9.03023212e-08  1.19739993e-07  3.78783380e-09  1.72137529e-10
 7.34488541e-08  7.34488541e-08  1.94699292e-04  3.80432521e-06  1.01862776e-07  1.42825434e-07  4.50715835e-09  2.03817411e-10
 7.68047005e-08  7.68047005e-08  2.21949437e-04  4.32243178e-06  1.14787170e-07  1.70405846e-07  5.36320338e-09  2.41212786e-10
 8.03228909e-08  8.03228909e-08  2.53024097e-04  4.90967190e-06  1.29202815e-07  2.03363262e-07  6.38177027e-09  2.85308942e-10
 8.40132829e-08  8.40132829e-08  2.88468955e-04  5.57501176e-06  1.45245141e-07  2.42769237e-07  7.59390765e-09  3.37264912e-10
 8.78855358e-08  8.78855358e-08  3.28898417e-04  6.32829383e-06  1.63046097e-07  2.89903053e-07  9.03624793e-09  3.98409045e-10
 9.19509873e-08  9.19509873e-08  3.75023818e-04  7.18064606e-06  1.82737509e-07  3.46316567e-07  1.07527007e-08  4.70286699e-10
 9.62212948e-08  9.62212948e-08  4.27651406e-04  8.14429127e-06  2.04438488e-07  4.13873325e-07  1.27952493e-08  5.54661293e-10
 1.00709818e-07  1.00709818e-07  4.87711473e-04  9.23289030e-06  2.28253342e-07  4.94835452e-07  1.52260581e-08  6.53559561e-10
 1.05430765e-07  1.05430765e-07  5.56263645e-04  1.04613896e-05  2.54255706e-07  5.91934442e-07  1.81188942e-08  7.69273615e-10
 1.10400276e-07  1.10400276e-07  6.34529043e-04  1.18462843e-05  2.82478879e-07  7.08494520e-07  2.15618633e-08  9.04397442e-10
 1.15635972e-07  1.15635972e-07  7.23904395e-04  1.34054583e-05  3.12893285e-07  8.48553624e-07  2.56597047e-08  1.06181969e-09
 1.21157903e-07  1.21157903e-07  8.26000169e-04  1.51583254e-05  3.45385537e-07  1.01704831e-06  3.05374711e-08  1.24473666e-09
 1.26988479e-07  1.26988479e-07  9.42666371e-04  1.71255828e-05  3.79723978e-07  1.22001835e-06  3.63440769e-08  1.45661344e-09
 1.33153458e-07  1.33153458e-07  1.07604132e-03  1.93291349e-05  4.15520265e-07  1.46489954e-06  4.32574118e-08  1.70114120e-09
 1.39682337e-07  1.39682337e-07  1.22859469e-03  2.17916082e-05  4.52174522e-07  1.76087651e-06  5.14897563e-08  1.98211912e-09
 1.46609651e-07  1.46609651e-07  1.40319544e-03  2.45358542e-05  4.88808847e-07  2.11937639e-06  6.12951420e-08  2.30328680e-09
 1.53976103e-07  1.53976103e-07  1.60318391e-03  2.75839140e-05  5.24177652e-07  2.55470652e-06  7.29777243e-08  2.66802433e-09
 1.61830716e-07  1.61830716e-07  1.83247745e-03  3.09556477e-05  5.56553866e-07  3.08495738e-06  8.69029344e-08  3.07890669e-09
 1.70233503e-07  1.70233503e-07  2.09570029e-03  3.46664440e-05  5.83577096e-07  3.73325411e-06  1.03511086e-07  3.53698819e-09
 1.79004463e-07  1.79004463e-07  2.38954241e-03  3.86089803e-05  6.01710277e-07  4.50553310e-06  1.22746851e-07  4.02649414e-09
 1.87382165e-07  1.87382165e-07  2.68757730e-03  4.23941204e-05  6.07940992e-07  5.33998148e-06  1.42919177e-07  4.49504174e-09
 1.95926868e-07  1.95926868e-07  3.00795722e-03  4.62219178e-05  6.01742596e-07  6.29406392e-06  1.65261703e-07  4.96243001e-09
 2.04178094e-07  2.04178094e-07  3.33186774e-03  4.98354532e-05  5.82622196e-07  7.31890756e-06  1.88463180e-07  5.39206965e-09
 2.12593832e-07  2.12593832e-07  3.67552754e-03  5.33817961e-05  5.48919727e-07  8.47349715e-06  2.13671722e-07  5.79550929e-09
 2.20875131e-07  2.20875131e-07  4.02524850e-03  5.66790739e-05  5.01141752e-07  9.72128181e-06  2.39871296e-07  6.14535339e-09
 2.29338448e-07  2.29338448e-07  4.39268843e-03  5.97928784e-05  4.36993964e-07  1.11143880e-05  2.67907794e-07  6.44083837e-09
 2.37780302e-07  2.37780302e-07  4.76731391e-03  6.25819263e-05  3.57565298e-07  1.26255239e-05  2.96942896e-07  6.65940902e-09
 2.46427111e-07  2.46427111e-07  5.15715547e-03  6.50483690e-05  2.60563430e-07  1.43014744e-05  3.27543940e-07  6.79033507e-09
 2.55146422e-07  2.55146422e-07  5.55400601e-03  6.70726035e-05  1.47458728e-07  1.61242682e-05  3.58994937e-07  6.81337907e-09
 2.64118247e-07  2.64118247e-07  5.96336137e-03  6.86047261e-05  1.62712154e-08  1.81396725e-05  3.91631098e-07  6.70934881e-09
 2.73275254e-07  2.73275254e-07  6.37894778e-03  6.95261599e-05 -1.31371030e-07  2.03424567e-05  4.24820812e-07  6.45702493e-09
 2.82840865e-07  2.82840865e-07  6.80682266e-03  6.97264590e-05 -2.98002978e-07  2.27989253e-05  4.58866465e-07  6.02431278e-09
 2.92883599e-07  2.92883599e-07  7.24454662e-03  6.90267557e-05 -4.83290378e-07  2.55449225e-05  4.93315147e-07  5.37460054e-09
 3.03769009e-07  3.03769009e-07  7.69978003e-03  6.71381111e-05 -6.91448892e-07  2.87074349e-05  5.28358961e-07  4.43805072e-09
 3.16158709e-07  3.16158709e-07  8.18503820e-03  6.34695799e-05 -9.30468623e-07  3.25289012e-05  5.64170166e-07  3.07849884e-09
 3.28308692e-07  3.28308692e-07  8.61780255e-03  5.82337491e-05 -1.15911793e-06  3.64876687e-05  5.93822059e-07  1.45253462e-09
 3.37105823e-07  3.37105823e-07  8.89968708e-03  5.34056173e-05 -1.31689920e-06  3.94733459e-05  6.11251548e-07  1.04416838e-10
 3.42872558e-07  3.42872558e-07  9.06832086e-03  4.97614218e-05 -1.41521628e-06  4.14802612e-05  6.20587718e-07 -8.52186300e-10
 3.47316170e-07  3.47316170e-07  9.18870247e-03  4.66928168e-05 -1.48749072e-06  4.30512279e-05  6.26538804e-07 -1.62588403e-09
 3.51124074e-07  3.51124074e-07  9.28478072e-03  4.38826400e-05 -1.54661871e-06  4.44130299e-05  6.30715067e-07 -2.31241794e-09
 3.54786331e-07  3.54786331e-07  9.37068299e-03  4.10231796e-05 -1.60075943e-06  4.57352062e-05  6.33882130e-07 -2.99165608e-09
 3.58703382e-07  3.58703382e-07  9.45517217e-03  3.77956499e-05 -1.65543453e-06  4.71617106e-05  6.36302726e-07 -3.73702722e-09
 3.63327730e-07  3.63327730e-07  9.54462527e-03  3.37624335e-05 -1.71531632e-06  4.88604725e-05  6.37812820e-07 -4.63950889e-09
 3.67679860e-07  3.67679860e-07  9.61820566e-03  2.97487958e-05 -1.76673116e-06  5.04720396e-05  6.37845031e-07 -5.50853704e-09
 3.73548244e-07  3.73548244e-07  9.70030369e-03  2.40088469e-05 -1.82786682e-06  5.26611800e-05  6.35648385e-07 -6.70504805e-09
 3.79284440e-07  3.79284440e-07  9.76067828e-03  1.80426196e-05 -1.87793943e-06  5.48149070e-05  6.30904280e-07 -7.89581045e-09
 3.86177050e-07  3.86177050e-07  9.80585984e-03  1.04247151e-05 -1.92458865e-06  5.74142907e-05  6.21638730e-07 -9.34382602e-09
 3.92998094e-07  3.92998094e-07  9.81973176e-03  2.42371004e-06 -1.95544192e-06  5.99914648e-05  6.08468419e-07 -1.07834731e-08
 4.00647152e-07  4.00647152e-07  9.79692295e-03 -7.06393978e-06 -1.97106034e-06  6.28764487e-05  5.88753722e-07 -1.23891926e-08
 4.08304574e-07  4.08304574e-07  9.73155473e-03 -1.70694862e-05 -1.96591850e-06  6.57473304e-05  5.63578219e-07 -1.39693312e-08
 4.16007488e-07  4.16007488e-07  9.62095572e-03 -2.76017433e-05 -1.93932273e-06  6.86047749e-05  5.32576661e-07 -1.55119088e-08
 4.24265113e-07  4.24265113e-07  9.45033541e-03 -3.93537981e-05 -1.88676360e-06  7.16179503e-05  4.92837418e-07 -1.70903748e-08
 4.33127266e-07  4.33127266e-07  9.20496071e-03 -5.24185162e-05 -1.80290745e-06  7.47739394e-05  4.42533182e-07 -1.86705768e-08
 4.42238343e-07  4.42238343e-07  8.88313520e-03 -6.62424743e-05 -1.68784791e-06  7.79113042e-05  3.82430670e-07 -2.01428353e-08
 4.51905241e-07  4.51905241e-07  8.46212839e-03 -8.12222340e-05 -1.53533294e-06  8.10927139e-05  3.09306960e-07 -2.15030610e-08
 4.61880435e-07  4.61880435e-07  7.93954172e-03 -9.68711052e-05 -1.34750617e-06  8.41839721e-05  2.23792739e-07 -2.26549515e-08
 4.72476370e-07  4.72476370e-07  7.28423485e-03 -1.13524414e-04 -1.11774113e-06  8.72151091e-05  1.21949361e-07 -2.35630785e-08
 4.83523444e-07  4.83523444e-07  6.48941872e-03 -1.30702790e-04 -8.49963332e-07  9.00527739e-05  4.07238716e-09 -2.41299736e-08
 4.94902945e-07  4.94902945e-07  5.55055942e-03 -1.47952380e-04 -5.50266582e-07  9.25805328e-05 -1.29221272e-07 -2.42792928e-08
 5.06668206e-07  5.06668206e-07  4.45166608e-03 -1.65029524e-04 -2.22594565e-07  9.47154893e-05 -2.78785190e-07 -2.39482630e-08
 5.15750346e-07  5.15750346e-07  3.51480730e-03 -1.77515668e-04  3.80548949e-08  9.59975246e-05 -4.01753220e-07 -2.33481567e-08
 5.21974212e-07  5.21974212e-07  2.82866136e-03 -1.85652580e-04  2.18487584e-07  9.66780721e-05 -4.89489316e-07 -2.27624628e-08
 5.27483657e-07  5.27483657e-07  2.19171619e-03 -1.92526780e-04  3.78130095e-07  9.71374591e-05 -5.69288974e-07 -2.21260436e-08
 5.33505633e-07  5.33505633e-07  1.46426744e-03 -1.99645425e-04  5.51233440e-07  9.74775327e-05 -6.58566605e-07 -2.13054115e-08
 5.39009871e-07  5.39009871e-07  7.71289496e-04 -2.05759388e-04  7.07203038e-07  9.76340140e-05 -7.41845963e-07 -2.04433585e-08
 5.46999391e-07  5.46999391e-07 -2.81034346e-04 -2.13901343e-04  9.27661397e-07  9.75855123e-05 -8.65108351e-07 -1.90087304e-08
 5.54858229e-07  5.54858229e-07 -1.36820591e-03 -2.20995532e-04  1.13547879e-06  9.72053208e-05 -9.88555839e-07 -1.73955460e-08
 5.64391814e-07  5.64391814e-07 -2.75329142e-03 -2.28286271e-04  1.37191574e-06  9.62790963e-05 -1.14027569e-06 -1.51895020e-08
 5.74178032e-07  5.74178032e-07 -4.24646825e-03 -2.34169207e-04  1.59278889e-06  9.47732835e-05 -1.29706668e-06 -1.26686550e-08
 5.85002773e-07  5.85002773e-07 -5.97606608e-03 -2.38670703e-04  1.80661608e-06  9.24217966e-05 -1.47007610e-06 -9.62038388e-09
 5.95591471e-07  5.95591471e-07 -7.73999155e-03 -2.40942491e-04  1.98059909e-06  8.93958101e-05 -1.63714082e-06 -6.42301152e-09
 6.05193623e-07  6.05193623e-07 -9.39456409e-03 -2.41124238e-04  2.10531809e-06  8.60096112e-05 -1.78530324e-06 -3.38310719e-09
 6.13316091e-07  6.13316091e-07 -1.08301387e-02 -2.39866861e-04  2.18439922e-06  8.26553538e-05 -1.90714841e-06 -7.39023956e-10
 6.20455940e-07  6.20455940e-07 -1.21156552e-02 -2.37683469e-04  2.23309751e-06  7.93281327e-05 -2.01091485e-06  1.61725147e-09
 6.26964963e-07  6.26964963e-07 -1.33040230e-02 -2.34815912e-04  2.26003277e-06  7.59810747e-05 -2.10228101e-06  3.77415759e-09
 6.32997450e-07  6.32997450e-07 -1.44170971e-02 -2.31419308e-04  2.26984654e-06  7.26085904e-05 -2.18381901e-06  5.76707613e-09
 6.38537954e-07  6.38537954e-07 -1.54474859e-02 -2.27684039e-04  2.26587679e-06  6.92799061e-05 -2.25575655e-06  7.58177013e-09
 6.43506100e-07  6.43506100e-07 -1.63766252e-02 -2.23844219e-04  2.25168541e-06  6.61056376e-05 -2.31765285e-06  9.18844820e-09
 6.47811309e-07  6.47811309e-07 -1.71847793e-02 -2.20151036e-04  2.23124157e-06  6.32094674e-05 -2.36915780e-06  1.05597488e-08
 6.51356414e-07  6.51356414e-07 -1.78517416e-02 -2.16861504e-04  2.20873105e-06  6.07229712e-05 -2.41000406e-06  1.16711677e-08
 6.54415064e-07  6.54415064e-07 -1.84278764e-02 -2.13848008e-04  2.18519290e-06  5.85037845e-05 -2.44406045e-06  1.26151768e-08
 6.57666744e-07  6.57666744e-07 -1.90406807e-02 -2.10471783e-04  2.15599274e-06  5.60694465e-05 -2.47901577e-06  1.36016545e-08
 6.61287051e-07  6.61287051e-07 -1.97228564e-02 -2.06508476e-04  2.11850494e-06  5.32681115e-05 -2.51636457e-06  1.46769159e-08
 6.65337306e-07  6.65337306e-07 -2.04852831e-02 -2.01830532e-04  2.07036152e-06  5.00205541e-05 -2.55612258e-06  1.58480813e-08
 6.70325287e-07  6.70325287e-07 -2.14220105e-02 -1.95734161e-04  2.00217082e-06  4.58567899e-05 -2.60203861e-06  1.72392141e-08
 6.75746604e-07  6.75746604e-07 -2.24358039e-02 -1.88718242e-04  1.91701483e-06  4.11264739e-05 -2.64799700e-06  1.86803946e-08
 6.81922817e-07  6.81922817e-07 -2.35829800e-02 -1.80291779e-04  1.80578327e-06  3.54792602e-05 -2.69517520e-06  2.02225174e-08
 6.88373213e-07  6.88373213e-07 -2.47694002e-02 -1.71054298e-04  1.67392224e-06  2.92904917e-05 -2.73838136e-06  2.17081391e-08
 6.95451393e-07  6.95451393e-07 -2.60537803e-02 -1.60491616e-04  1.51125890e-06  2.21619667e-05 -2.77847398e-06  2.31768896e-08
 7.02780640e-07  7.02780640e-07 -2.73600000e-02 -1.49195886e-04  1.32356640e-06  1.44148489e-05 -2.81176499e-06  2.45037208e-08
 7.10613795e-07  7.10613795e-07 -2.87239233e-02 -1.36865831e-04  1.10207922e-06  5.73295472e-06 -2.83799354e-06  2.56852503e-08
 7.18677055e-07  7.18677055e-07 -3.00871412e-02 -1.24065928e-04  8.52595103e-07 -3.62586493e-06 -2.85489165e-06  2.66272258e-08
 7.27161046e-07  7.27161046e-07 -3.14696766e-02 -1.10682251e-04  5.68127979e-07 -1.39188561e-05 -2.86172844e-06  2.72979692e-08
 7.35890966e-07  7.35890966e-07 -3.28288918e-02 -9.72206232e-05  2.54214535e-07 -2.49669892e-05 -2.85733243e-06  2.76259532e-08
 7.44195423e-07  7.44195423e-07 -3.40548409e-02 -8.48988300e-05 -6.14998870e-08 -3.58853855e-05 -2.84278338e-06  2.75822948e-08
 7.52523404e-07  7.52523404e-07 -3.52113133e-02 -7.31859485e-05 -3.91054436e-07 -4.72112853e-05 -2.81855617e-06  2.71793846e-08
 7.60666540e-07  7.60666540e-07 -3.62646290e-02 -6.24851086e-05 -7.21126906e-07 -5.86259360e-05 -2.78612012e-06  2.64319276e-08
 7.69218038e-07  7.69218038e-07 -3.72808691e-02 -5.21410577e-05 -1.06943539e-06 -7.09456421e-05 -2.74347584e-06  2.52707106e-08
