 time            time            v(n1)           v(n2)           v(n3)           i(L1)           i(L2)           i(L3)
 1.56250000e-10  1.56250000e-10  5.85658984e-12  1.55198776e-18 -5.24019418e-22  3.61261555e-17 -2.12442985e-19  1.10835756e-21
 3.12500000e-10  3.12500000e-10  2.92829259e-11  9.38253407e-18 -3.66798537e-21  2.16755896e-16 -1.27462297e-18  6.64990199e-21
 6.25000000e-10  6.25000000e-10  1.60470057e-10  6.79878171e-17 -3.31433555e-20  1.54906734e-15 -9.10883219e-18  4.75212998e-20
 1.25000000e-09  1.25000000e-09  1.16497605e-09  9.15240006e-16 -7.47826038e-19  1.98608308e-14 -1.16766965e-16  6.09130950e-19
 2.50000000e-09  2.50000000e-09  9.16463684e-09  1.55879451e-14 -2.25864753e-17  3.05832888e-13 -1.79736456e-15  9.37381245e-18
 3.65912955e-09  3.65912955e-09  2.76590186e-08  6.72252839e-14 -1.19551290e-16  1.24637696e-12 -7.32301000e-15  3.81843447e-17
 4.70947565e-09  4.70947565e-09  5.72944623e-08  1.75998177e-13 -3.54314436e-16  3.13093998e-12 -1.83917761e-14  9.58836424e-17
 5.66073325e-09  5.66073325e-09  9.76523285e-08  3.57588501e-13 -7.90916214e-16  6.16604301e-12 -3.62137323e-14  1.88765167e-16
 6.56604667e-09  6.56604667e-09  1.50505023e-07  6.36181170e-13 -1.53131018e-15  1.07277903e-11 -6.29937311e-14  3.28299731e-16
 7.45068307e-09  7.45068307e-09  2.18015945e-07  1.03440011e-12 -2.71792196e-15  1.72962477e-11 -1.01545572e-13  5.29118733e-16
 8.32220943e-09  8.32220943e-09  3.01966430e-07  1.56077876e-12 -4.52684145e-15  2.63838974e-11 -1.54872454e-13  8.06824241e-16
 9.17892095e-09  9.17892095e-09  4.03342468e-07  2.19684245e-12 -7.15286842e-15  3.84617564e-11 -2.25734728e-13  1.17573618e-15
 1.00182257e-08  1.00182257e-08  5.22646413e-07  2.89464297e-12 -1.08047474e-14  5.39589353e-11 -3.16648991e-13  1.64888821e-15
 1.08392787e-08  1.08392787e-08  6.60243255e-07  3.59144321e-12 -1.57077063e-14  7.32888738e-11 -4.30042941e-13  2.23883419e-15
 1.17265932e-08  1.17265932e-08  8.34198021e-07  4.35064155e-12 -2.28963111e-14  9.96535969e-11 -5.84703767e-13  3.04317069e-15
 1.25301605e-08  1.25301605e-08  1.01603916e-06  4.77694247e-12 -3.14948612e-14  1.29183405e-10 -7.57945251e-13  3.94378645e-15
 1.33715386e-08  1.33715386e-08  1.23300052e-06  5.89313595e-12 -4.31142052e-14  1.66728549e-10 -9.78200756e-13  5.08834033e-15
 1.41444195e-08  1.41444195e-08  1.45773924e-06  4.50220920e-12 -5.66115037e-14  2.07956099e-10 -1.22014250e-12  6.34506060e-15
 1.49403905e-08  1.49403905e-08  1.71620389e-06  1.53908436e-11 -7.38544183e-14  2.58003881e-10 -1.51346123e-12  7.86797937e-15
 1.56250000e-08  1.56250000e-08  1.96153792e-06 -5.10937067e-11 -9.19487103e-14  3.07844616e-10 -1.80785219e-12  9.39587864e-15
 1.56996671e-08  1.56996671e-08  1.98972360e-06  3.55067341e-11 -9.41064012e-14  3.13706200e-10 -1.84208693e-12  9.57351105e-15
 1.58490013e-08  1.58490013e-08  2.04673985e-06 -1.19898306e-09 -9.88832371e-14  3.25630910e-10 -1.92002213e-12  9.97810444e-15
 1.60863699e-08  1.60863699e-08  2.13949446e-06  1.47433137e-08 -9.92225494e-14  3.45255323e-10 -1.87769920e-12  9.75402574e-15
 1.61982364e-08  1.61982364e-08  2.18414094e-06 -4.80956979e-08 -1.15178449e-13  3.54801103e-10 -2.22088216e-12  1.15428255e-14
 1.63205731e-08  1.63205731e-08  2.23366912e-06 -1.35818836e-07 -1.59921674e-13  3.65467350e-10 -3.20850863e-12  1.66932478e-14
 1.63427593e-08  1.63427593e-08  2.24273028e-06  1.14283453e-07 -1.77825594e-13  3.67426119e-10 -3.07774328e-12  1.60104577e-14
 1.63683238e-08  1.63683238e-08  2.25320154e-06  4.35281494e-07 -1.59227042e-13  3.69691592e-10 -2.49119415e-12  1.29495996e-14
 1.63965215e-08  1.63965215e-08  2.26478920e-06  8.04572538e-07 -9.47928242e-14  3.72200551e-10 -1.16397350e-12  6.02445491e-15
 1.64292682e-08  1.64292682e-08  2.27829626e-06  1.24288189e-06  4.77080326e-14  3.75127475e-10  1.34592880e-12 -7.07084485e-15
 1.64328444e-08  1.64328444e-08  2.27977459e-06  7.82473366e-07  3.17622544e-13  3.75448361e-10  1.55952886e-12 -8.18516543e-15
 1.64369901e-08  1.64369901e-08  2.28148911e-06  2.10392823e-07  4.28716614e-13  3.75820974e-10  1.68709319e-12 -8.85053487e-15
 1.64418994e-08  1.64418994e-08  2.28352061e-06 -4.83707519e-07  4.73572842e-13  3.76263263e-10  1.62320999e-12 -8.51696804e-15
 1.64464729e-08  1.64464729e-08  2.28541422e-06 -1.13671997e-06  4.64516486e-13  3.76676341e-10  1.33958301e-12 -7.03691085e-15
 1.64556200e-08  1.64556200e-08  2.28920457e-06 -2.44905998e-06  3.12914066e-13  3.77505598e-10  1.03301993e-13 -5.86286222e-16
 1.64674698e-08  1.64674698e-08  2.29412116e-06 -4.15735156e-06 -3.29715266e-13  3.78586075e-10 -2.83660241e-12  1.47523687e-14
 1.64681014e-08  1.64681014e-08  2.29438341e-06 -8.98920386e-07 -3.73435663e-13  3.78643392e-10 -2.88493462e-12  1.50045108e-14
 1.64687389e-08  1.64687389e-08  2.29464817e-06  2.50475771e-06 -1.92486345e-13  3.78700911e-10 -2.82187950e-12  1.46755037e-14
 1.64691818e-08  1.64691818e-08  2.29483207e-06  4.89739688e-06  3.72699433e-13  3.78740605e-10 -2.69413246e-12  1.40089991e-14
 1.64697451e-08  1.64697451e-08  2.29506603e-06  7.95120262e-06  2.10860484e-12  3.78790764e-10 -2.42096999e-12  1.25838800e-14
 1.64704259e-08  1.64704259e-08  2.29534880e-06  1.16466474e-05  6.91716093e-12  3.78850861e-10 -1.92070586e-12  9.97416946e-15
 1.64716158e-08  1.64716158e-08  2.29584309e-06  1.81101360e-05  2.59330049e-11  3.78954515e-10 -5.94877720e-13  3.05917793e-15
 1.64735220e-08  1.64735220e-08  2.29663506e-06  2.84715632e-05  1.00255518e-10  3.79116891e-10  2.72910413e-12 -1.42683577e-14
 1.64773343e-08  1.64773343e-08  2.29821961e-06  4.92169909e-05  5.03879494e-10  3.79428053e-10  1.38169819e-11 -7.19734970e-14
 1.64849589e-08  1.64849589e-08  2.30139108e-06  9.07946728e-05  3.07706273e-09  3.79995914e-10  5.37875173e-11 -2.78775726e-13
 1.64851391e-08  1.64851391e-08  2.30146606e-06  2.74033927e-05 -3.02045448e-07  3.80011087e-10  5.41701335e-11 -2.86912668e-13
 1.64853088e-08  1.64853088e-08  2.30153665e-06 -3.32297696e-05 -6.86929929e-07  3.80027008e-10  5.40034785e-11 -2.96992500e-13
 1.64853375e-08  1.64853375e-08  2.30154860e-06 -4.35625245e-05 -8.05017329e-07  3.80029881e-10  5.39180646e-11 -2.99113182e-13
 1.64853762e-08  1.64853762e-08  2.30156470e-06 -5.74944662e-05 -1.04798911e-06  3.80033853e-10  5.37702305e-11 -3.02578092e-13
 1.64854118e-08  1.64854118e-08  2.30157953e-06 -7.03275120e-05 -1.39379329e-06  3.80037620e-10  5.35992455e-11 -3.06826992e-13
 1.64854564e-08  1.64854564e-08  2.30159805e-06 -8.63566512e-05 -2.04041797e-06  3.80042472e-10  5.33379368e-11 -3.14498419e-13
 1.64854988e-08  1.64854988e-08  2.30161572e-06 -1.01655868e-04 -2.92347902e-06  3.80047257e-10  5.30388387e-11 -3.25402101e-13
 1.64855472e-08  1.64855472e-08  2.30163586e-06 -1.19088464e-04 -4.30661889e-06  3.80052893e-10  5.26387842e-11 -3.43955335e-13
 1.64855913e-08  1.64855913e-08  2.30165421e-06 -1.34967667e-04 -5.96824472e-06  3.80058198e-10  5.22194333e-11 -3.68411911e-13
 1.64856391e-08  1.64856391e-08  2.30167406e-06 -1.52157326e-04 -8.26099873e-06  3.80064123e-10  5.17064286e-11 -4.05554916e-13
 1.64856835e-08  1.64856835e-08  2.30169254e-06 -1.68153601e-04 -1.09100815e-05  3.80069807e-10  5.11739046e-11 -4.52580264e-13
 1.64857305e-08  1.64857305e-08  2.30171210e-06 -1.85089365e-04 -1.43170703e-05  3.80076005e-10  5.05521900e-11 -5.18576626e-13
 1.64857752e-08  1.64857752e-08  2.30173070e-06 -2.01195017e-04 -1.81865943e-05  3.80082071e-10  4.99057021e-11 -5.99909428e-13
 1.64858219e-08  1.64858219e-08  2.30175010e-06 -2.17986361e-04 -2.29338724e-05  3.80088572e-10  4.91743573e-11 -7.07668316e-13
 1.64858668e-08  1.64858668e-08  2.30176881e-06 -2.34193100e-04 -2.82616019e-05  3.80095019e-10  4.84129822e-11 -8.37632625e-13
 1.64859132e-08  1.64859132e-08  2.30178810e-06 -2.50892660e-04 -3.45764531e-05  3.80101839e-10  4.75714504e-11 -1.00248553e-12
 1.64859615e-08  1.64859615e-08  2.30180819e-06 -2.68285775e-04 -4.21084780e-05  3.80109133e-10  4.66334750e-11 -1.21260152e-12
 1.64860136e-08  1.64860136e-08  2.30182986e-06 -2.87052456e-04 -5.14060174e-05  3.80117221e-10  4.55510777e-11 -1.48979915e-12
 1.64860689e-08  1.64860689e-08  2.30185286e-06 -3.06977699e-04 -6.27003457e-05  3.80126056e-10  4.43219683e-11 -1.84980080e-12
 1.64861286e-08  1.64861286e-08  2.30187767e-06 -3.28460983e-04 -7.66345954e-05  3.80135867e-10  4.29046055e-11 -2.32480950e-12
 1.64861920e-08  1.64861920e-08  2.30190406e-06 -3.51322394e-04 -9.36039658e-05  3.80146633e-10  4.12913659e-11 -2.94359726e-12
 1.64862602e-08  1.64862602e-08  2.30193242e-06 -3.75879072e-04 -1.14462983e-04  3.80158571e-10  3.94380166e-11 -3.75733184e-12
 1.64863329e-08  1.64863329e-08  2.30196263e-06 -4.02048858e-04 -1.39900752e-04  3.80171719e-10  3.73256581e-11 -4.81903599e-12
 1.64864107e-08  1.64864107e-08  2.30199502e-06 -4.30107474e-04 -1.71108739e-04  3.80186303e-10  3.49036246e-11 -6.21264489e-12
 1.64864939e-08  1.64864939e-08  2.30202957e-06 -4.60048278e-04 -2.09212676e-04  3.80202422e-10  3.21398467e-11 -8.03317587e-12
 1.64865829e-08  1.64865829e-08  2.30206659e-06 -4.92119755e-04 -2.55911687e-04  3.80220323e-10  2.89742731e-11 -1.04203826e-11
 1.64866780e-08  1.64866780e-08  2.30210612e-06 -5.26372839e-04 -3.12975503e-04  3.80240167e-10  2.53593220e-11 -1.35413694e-11
 1.64867797e-08  1.64867797e-08  2.30214843e-06 -5.63042628e-04 -3.82867234e-04  3.80262241e-10  2.12217292e-11 -1.76311521e-11
 1.64868885e-08  1.64868885e-08  2.30219365e-06 -6.02228257e-04 -4.68313551e-04  3.80286777e-10  1.64948678e-11 -2.29805157e-11
 1.64870049e-08  1.64870049e-08  2.30224203e-06 -6.44163730e-04 -5.72926666e-04  3.80314116e-10  1.10873590e-11 -2.99873300e-11
 1.64871293e-08  1.64871293e-08  2.30229374e-06 -6.88991445e-04 -7.00860008e-04  3.80344575e-10  4.90869942e-12 -3.91544628e-11
 1.64872624e-08  1.64872624e-08  2.30234906e-06 -7.36954385e-04 -8.57451272e-04  3.80378574e-10 -2.15676366e-12 -5.11583758e-11
 1.64874047e-08  1.64874047e-08  2.30240820e-06 -7.88236012e-04 -1.04898426e-03  3.80416533e-10 -1.02297745e-11 -6.68654012e-11
 1.64875569e-08  1.64875569e-08  2.30247146e-06 -8.43096789e-04 -1.28338434e-03  3.80458976e-10 -1.94580032e-11 -8.74287281e-11
 1.64877197e-08  1.64877197e-08  2.30253909e-06 -9.01761149e-04 -1.57011901e-03  3.80506454e-10 -3.00006809e-11 -1.14337333e-10
 1.64878938e-08  1.64878938e-08  2.30261143e-06 -9.64514638e-04 -1.92099116e-03  3.80559624e-10 -4.20472280e-11 -1.49560306e-10
 1.64880800e-08  1.64880800e-08  2.30268877e-06 -1.03162429e-03 -2.35022854e-03  3.80619202e-10 -5.58059004e-11 -1.95652961e-10
 1.64882792e-08  1.64882792e-08  2.30277148e-06 -1.10340796e-03 -2.87544140e-03  3.80686020e-10 -7.15200343e-11 -2.55980853e-10
 1.64884921e-08  1.64884921e-08  2.30285992e-06 -1.18017839e-03 -3.51797718e-03  3.80760997e-10 -8.94601711e-11 -3.34925111e-10
 1.64887143e-08  1.64887143e-08  2.30295216e-06 -1.26026589e-03 -4.28339893e-03  3.80843063e-10 -1.09417179e-10 -4.35415201e-10
 1.64889255e-08  1.64889255e-08  2.30303987e-06 -1.33643984e-03 -5.10724868e-03  3.80924742e-10 -1.29567748e-10 -5.50415507e-10
 1.64891387e-08  1.64891387e-08  2.30312836e-06 -1.41331240e-03 -6.03919701e-03  3.81010725e-10 -1.51049970e-10 -6.88088940e-10
 1.64893415e-08  1.64893415e-08  2.30321253e-06 -1.48644037e-03 -7.02469358e-03  3.81095811e-10 -1.72547109e-10 -8.41500952e-10
 1.64895449e-08  1.64895449e-08  2.30329694e-06 -1.55979985e-03 -8.11538253e-03  3.81184364e-10 -1.95143854e-10 -1.01976887e-09
 1.64897407e-08  1.64897407e-08  2.30337818e-06 -1.63042227e-03 -9.26662864e-03  3.81272614e-10 -2.17865745e-10 -1.21671798e-09
 1.64899419e-08  1.64899419e-08  2.30346165e-06 -1.70299222e-03 -1.05579527e-02  3.81366340e-10 -2.42195166e-10 -1.44746552e-09
 1.64901512e-08  1.64901512e-08  2.30354844e-06 -1.77847003e-03 -1.20227896e-02  3.81467061e-10 -2.68544588e-10 -1.72078477e-09
 1.64903697e-08  1.64903697e-08  2.30363904e-06 -1.85728566e-03 -1.36908345e-02  3.81575727e-10 -2.97185254e-10 -2.04576385e-09
 1.64905985e-08  1.64905985e-08  2.30373392e-06 -1.93983429e-03 -1.55962479e-02  3.81693321e-10 -3.28402299e-10 -2.43341822e-09
 1.64908374e-08  1.64908374e-08  2.30383296e-06 -2.02603391e-03 -1.77665301e-02  3.81820196e-10 -3.62316037e-10 -2.89453034e-09
 1.64910872e-08  1.64910872e-08  2.30393650e-06 -2.11618299e-03 -2.02423779e-02  3.81957284e-10 -3.99202741e-10 -3.44389796e-09
 1.64913480e-08  1.64913480e-08  2.30404455e-06 -2.21027794e-03 -2.30613380e-02  3.82105099e-10 -4.39228768e-10 -4.09715190e-09
 1.64916205e-08  1.64916205e-08  2.30415743e-06 -2.30861317e-03 -2.62749141e-02  3.82264651e-10 -4.82695688e-10 -4.87489566e-09
 1.64919049e-08  1.64919049e-08  2.30427522e-06 -2.41126702e-03 -2.99343086e-02  3.82436644e-10 -5.29824430e-10 -5.79983199e-09
 1.64922020e-08  1.64922020e-08  2.30439824e-06 -2.51852173e-03 -3.41049191e-02  3.82622156e-10 -5.80939812e-10 -6.90075281e-09
 1.64925122e-08  1.64925122e-08  2.30452665e-06 -2.63050836e-03 -3.88549467e-02  3.82822048e-10 -6.36308874e-10 -8.21025359e-09
 1.64928362e-08  1.64928362e-08  2.30466073e-06 -2.74750053e-03 -4.42678381e-02  3.83037466e-10 -6.96279216e-10 -9.76869779e-09
 1.64931746e-08  1.64931746e-08  2.30480069e-06 -2.86967006e-03 -5.04334428e-02  3.83269408e-10 -7.61158355e-10 -1.16226098e-08
 1.64935279e-08  1.64935279e-08  2.30494683e-06 -2.99729093e-03 -5.74588481e-02  3.83519089e-10 -8.31316039e-10 -1.38287612e-08
 1.64938969e-08  1.64938969e-08  2.30509936e-06 -3.13057062e-03 -6.54617609e-02  3.83787618e-10 -9.07093463e-10 -1.64533511e-08
 1.64942823e-08  1.64942823e-08  2.30525861e-06 -3.26979135e-03 -7.45801727e-02  3.84076266e-10 -9.88877597e-10 -1.95764141e-08
 1.64946848e-08  1.64946848e-08  2.30542484e-06 -3.41519368e-03 -8.49677597e-02  3.84386220e-10 -1.07703187e-09 -2.32919638e-08
 1.64951051e-08  1.64951051e-08  2.30559836e-06 -3.56707457e-03 -9.68028031e-02  3.84718771e-10 -1.17194848e-09 -2.77129941e-08
 1.64955440e-08  1.64955440e-08  2.30577947e-06 -3.72570748e-03 -1.10285504e-01  3.85075122e-10 -1.27399387e-09 -3.29728499e-08
 1.64960024e-08  1.64960024e-08  2.30596852e-06 -3.89141133e-03 -1.25646574e-01  3.85456515e-10 -1.38354303e-09 -3.92311899e-08
 1.64964811e-08  1.64964811e-08  2.30616582e-06 -4.06449671e-03 -1.43146448e-01  3.85864075e-10 -1.50093411e-09 -4.66769592e-08
 1.64969810e-08  1.64969810e-08  2.30637174e-06 -4.24531330e-03 -1.63083944e-01  3.86298877e-10 -1.62648675e-09 -5.55357959e-08
 1.64975030e-08  1.64975030e-08  2.30658663e-06 -4.43420634e-03 -1.85797409e-01  3.86761809e-10 -1.76046074e-09 -6.60751352e-08
 1.64980482e-08  1.64980482e-08  2.30681086e-06 -4.63154265e-03 -2.11673971e-01  3.87253592e-10 -1.90305984e-09 -7.86138265e-08
 1.64986174e-08  1.64986174e-08  2.30704482e-06 -4.83768725e-03 -2.41153087e-01  3.87774651e-10 -2.05439111e-09 -9.35303625e-08
 1.64992118e-08  1.64992118e-08  2.30728892e-06 -5.05303351e-03 -2.74737036e-01  3.88325079e-10 -2.21445330e-09 -1.11275793e-07
 1.64998325e-08  1.64998325e-08  2.30754356e-06 -5.27798818e-03 -3.12996839e-01  3.88904487e-10 -2.38308837e-09 -1.32386021e-07
 1.64998489e-08  1.64998489e-08  2.30755032e-06 -4.23847509e-03  3.15605806e+04  1.00137346e-09 -1.99900628e-07  5.82383538e-05
 1.64998542e-08  1.64998542e-08  2.30755250e-06 -3.82975570e-03  4.04654860e+04  1.24886943e-09 -2.79716620e-07  8.18258873e-05
 1.64998560e-08  1.64998560e-08  2.30755324e-06 -3.67987690e-03  4.32218932e+04  1.34057101e-09 -3.09289843e-07  9.05655041e-05
 1.64998580e-08  1.64998580e-08  2.30755409e-06 -3.49894708e-03  4.61512199e+04  1.45197210e-09 -3.45216051e-07  1.01182601e-04
 1.64998607e-08  1.64998607e-08  2.30755517e-06 -3.25278077e-03  4.95140033e+04  1.60457116e-09 -3.94428366e-07  1.15726103e-04
 1.64998643e-08  1.64998643e-08  2.30755667e-06 -2.88950167e-03  5.34273362e+04  1.83135609e-09 -4.67565207e-07  1.37339961e-04
 1.64998676e-08  1.64998676e-08  2.30755804e-06 -2.54023477e-03  5.62672022e+04  2.05065896e-09 -5.38289132e-07  1.58240779e-04
 1.64998714e-08  1.64998714e-08  2.30755960e-06 -2.12458934e-03  5.87440459e+04  2.31272736e-09 -6.22804701e-07  1.83217442e-04
 1.64998749e-08  1.64998749e-08  2.30756106e-06 -1.72221419e-03  6.04162095e+04  2.56719419e-09 -7.04868812e-07  2.07469670e-04
 1.64998785e-08  1.64998785e-08  2.30756253e-06 -1.30609045e-03  6.15762266e+04  2.83087552e-09 -7.89904549e-07  2.32600132e-04
 1.64998819e-08  1.64998819e-08  2.30756394e-06 -9.05645854e-04  6.22895522e+04  3.08494522e-09 -8.71840589e-07  2.56814578e-04
 1.64998853e-08  1.64998853e-08  2.30756533e-06 -5.03911370e-04  6.27373003e+04  3.34003418e-09 -9.54105338e-07  2.81126199e-04
 1.64998885e-08  1.64998885e-08  2.30756666e-06 -1.18545194e-04  6.30257280e+04  3.58485329e-09 -1.03305812e-06  3.04459064e-04
 1.64998915e-08  1.64998915e-08  2.30756793e-06  2.49295900e-04  6.32684478e+04  3.81862485e-09 -1.10844813e-06  3.26739052e-04
 1.64998947e-08  1.64998947e-08  2.30756923e-06  6.31326029e-04  6.35864077e+04  4.06150588e-09 -1.18677589e-06  3.49887260e-04
 1.64998981e-08  1.64998981e-08  2.30757066e-06  1.05010948e-03  6.41335553e+04  4.32790412e-09 -1.27268782e-06  3.75276847e-04
 1.64999014e-08  1.64999014e-08  2.30757199e-06  1.44724466e-03  6.49519956e+04  4.58074875e-09 -1.35422879e-06  3.99374711e-04
 1.64999048e-08  1.64999048e-08  2.30757341e-06  1.87521340e-03  6.62801454e+04  4.85357783e-09 -1.44221463e-06  4.25377262e-04
 1.64999080e-08  1.64999080e-08  2.30757474e-06  2.28370106e-03  6.80764639e+04  5.11445702e-09 -1.52634670e-06  4.50240932e-04
 1.64999113e-08  1.64999113e-08  2.30757610e-06  2.71698261e-03  7.06370450e+04  5.39182542e-09 -1.61579646e-06  4.76676169e-04
 1.64999144e-08  1.64999144e-08  2.30757738e-06  3.13919091e-03  7.38427741e+04  5.66289158e-09 -1.70321378e-06  5.02510780e-04
 1.64999175e-08  1.64999175e-08  2.30757867e-06  3.58301076e-03  7.80111415e+04  5.94880118e-09 -1.79541803e-06  5.29760101e-04
 1.64999204e-08  1.64999204e-08  2.30757988e-06  4.02351605e-03  8.29707403e+04  6.23364905e-09 -1.88727988e-06  5.56908249e-04
 1.64999233e-08  1.64999233e-08  2.30758107e-06  4.48500872e-03  8.90368229e+04  6.53327475e-09 -1.98390751e-06  5.85464849e-04
 1.64999260e-08  1.64999260e-08  2.30758220e-06  4.95080676e-03  9.60318565e+04  6.83695991e-09 -2.08184430e-06  6.14408356e-04
 1.64999286e-08  1.64999286e-08  2.30758329e-06  5.43946737e-03  1.04266141e+05  7.15688874e-09 -2.18501959e-06  6.44900017e-04
 1.64999311e-08  1.64999311e-08  2.30758433e-06  5.94015496e-03  1.13596007e+05  7.48604566e-09 -2.29117089e-06  6.76271188e-04
 1.64999335e-08  1.64999335e-08  2.30758534e-06  6.46733829e-03  1.24329824e+05  7.83400278e-09 -2.40338516e-06  7.09434164e-04
 1.64999358e-08  1.64999358e-08  2.30758629e-06  7.01417442e-03  1.36378463e+05  8.19630181e-09 -2.52022463e-06  7.43964031e-04
 1.64999380e-08  1.64999380e-08  2.30758722e-06  7.59217690e-03  1.50051928e+05  8.58061810e-09 -2.64416454e-06  7.80592309e-04
 1.64999401e-08  1.64999401e-08  2.30758811e-06  8.19726681e-03  1.65323549e+05  8.98428682e-09 -2.77434552e-06  8.19065017e-04
 1.64999421e-08  1.64999421e-08  2.30758897e-06  8.83884523e-03  1.82510516e+05  9.41362013e-09 -2.91280319e-06  8.59983749e-04
 1.64999441e-08  1.64999441e-08  2.30758979e-06  9.51483059e-03  2.01652078e+05  9.86726577e-09 -3.05910147e-06  9.03219623e-04
 1.64999459e-08  1.64999459e-08  2.30759059e-06  1.02331469e-02  2.23080903e+05  1.03505776e-08 -3.21496695e-06  9.49282903e-04
 1.64999477e-08  1.64999477e-08  2.30759136e-06  1.09932269e-02  2.46905443e+05  1.08632099e-08 -3.38028810e-06  9.98140628e-04
 1.64999495e-08  1.64999495e-08  2.30759211e-06  1.18019917e-02  2.73484540e+05  1.14098631e-08 -3.55658083e-06  1.05024079e-03
 1.64999511e-08  1.64999511e-08  2.30759284e-06  1.26600704e-02  3.03000614e+05  1.19909943e-08 -3.74399255e-06  1.10562696e-03
 1.64999527e-08  1.64999527e-08  2.30759354e-06  1.35737321e-02  3.35851343e+05  1.26108784e-08 -3.94390187e-06  1.16470656e-03
 1.64999542e-08  1.64999542e-08  2.30759423e-06  1.45445828e-02  3.72300058e+05  1.32706332e-08 -4.15666928e-06  1.22758612e-03
