 time            time            v(n1)           v(n2)           v(n3)           i(L1)           i(L2)           i(L3)
 1.56250000e-10  1.56250000e-10  5.85659054e-12  7.06317626e-20 -5.24833380e-22  3.61261599e-17 -2.12460342e-19  1.10844810e-21
 3.12500000e-10  3.12500000e-10  2.92829301e-11  4.94416493e-19 -3.67376128e-21  2.16755926e-16 -1.27474447e-18  6.65053573e-21
 6.25000000e-10  6.25000000e-10  1.60470087e-10  4.46772489e-18 -3.31968958e-20  1.54906762e-15 -9.10993006e-18  4.75270262e-20
 1.25000000e-09  1.25000000e-09  1.16497643e-09  1.00831273e-16 -7.49156491e-19  1.98608370e-14 -1.16791743e-16  6.09260157e-19
 2.50000000e-09  2.50000000e-09  9.16464274e-09  3.04725205e-15 -2.26349119e-17  3.05833075e-13 -1.79811343e-15  9.37771461e-18
 3.65912917e-09  3.65912917e-09  2.76590339e-08  1.61348688e-14 -1.19830347e-16  1.24637741e-12 -7.32697120e-15  3.82049764e-17
 4.70947466e-09  4.70947466e-09  5.72944865e-08  4.78320504e-14 -3.55191513e-16  3.13094026e-12 -1.84035035e-14  9.59447021e-17
 5.66073154e-09  5.66073154e-09  9.76523588e-08  1.06798763e-13 -7.92967388e-16  6.16604211e-12 -3.62398227e-14  1.88900964e-16
 6.56604419e-09  6.56604419e-09  1.50505059e-07  2.06823762e-13 -1.53544157e-15  1.07277868e-11 -6.30438452e-14  3.28560479e-16
 7.45067978e-09  7.45067978e-09  2.18015989e-07  3.67174312e-13 -2.72549230e-15  1.72962398e-11 -1.01632994e-13  5.29573419e-16
 8.32220530e-09  8.32220530e-09  3.01966489e-07  6.11676257e-13 -4.53972562e-15  2.63838827e-11 -1.55013405e-13  8.07557010e-16
 9.17891593e-09  9.17891593e-09  4.03342547e-07  9.66686747e-13 -7.17339800e-15  3.84617318e-11 -2.25945797e-13  1.17683289e-15
 1.00182198e-08  1.00182198e-08  5.22646522e-07  1.46043975e-12 -1.08355359e-14  5.39588970e-11 -3.16942985e-13  1.65041475e-15
 1.08392718e-08  1.08392718e-08  6.60243401e-07  2.12338160e-12 -1.57514016e-14  7.32888169e-11 -4.30424024e-13  2.24081117e-15
 1.17265854e-08  1.17265854e-08  8.34198280e-07  3.09538964e-12 -2.29571792e-14  9.96535222e-11 -5.85171770e-13  3.04559526e-15
 1.25301517e-08  1.25301517e-08  1.01603950e-06  4.25797291e-12 -3.15734452e-14  1.29183302e-10 -7.58459563e-13  3.94644562e-15
 1.33715289e-08  1.33715289e-08  1.23300103e-06  5.82908727e-12 -4.32141969e-14  1.66728418e-10 -9.78733948e-13  5.09108873e-15
 1.41444086e-08  1.41444086e-08  1.45773989e-06  7.65362745e-12 -5.67287827e-14  2.07955926e-10 -1.22055772e-12  6.34718338e-15
 1.49403785e-08  1.49403785e-08  1.71620474e-06  9.98716227e-12 -7.40084469e-14  2.58003664e-10 -1.51404895e-12  7.87098890e-15
 1.56250000e-08  1.56250000e-08  1.96154384e-06  1.24209455e-11 -9.20253205e-14  3.07845359e-10 -1.80626630e-12  9.38754050e-15
 1.56996670e-08  1.56996670e-08  1.98972959e-06  1.27133587e-11 -9.41897214e-14  3.13706952e-10 -1.84062856e-12  9.56583766e-15
 1.58490010e-08  1.58490010e-08  2.04674597e-06  1.33115115e-11 -9.86170004e-14  3.25631654e-10 -1.91053241e-12  9.92853133e-15
 1.61476689e-08  1.61476689e-08  2.16391053e-06  1.45739912e-11 -1.07960507e-13  3.50470471e-10 -2.05612981e-12  1.06838569e-14
 1.65461989e-08  1.65461989e-08  2.32706842e-06  1.64077863e-11 -1.21530263e-13  3.85806346e-10 -2.26323378e-12  1.17580287e-14
 1.72770531e-08  1.72770531e-08  2.64736359e-06  2.02629093e-11 -1.50050114e-13  4.57608697e-10 -2.68398447e-12  1.39394799e-14
 1.79665398e-08  1.79665398e-08  2.97540511e-06  2.45454046e-11 -1.81721345e-13  5.34229816e-10 -3.13285986e-12  1.62656319e-14
 1.88346287e-08  1.88346287e-08  3.42573306e-06  3.09536419e-11 -2.29095654e-13  6.44085164e-10 -3.77624845e-12  1.95979373e-14
 1.96374313e-08  1.96374313e-08  3.88070805e-06  3.80172788e-11 -2.81293773e-13  7.60069326e-10 -4.45531883e-12  2.31129194e-14
 2.05596620e-08  2.05596620e-08  4.45114868e-06  4.76777945e-11 -3.52650064e-13  9.12002765e-10 -5.34456495e-12  2.77127680e-14
 2.14481571e-08  2.14481571e-08  5.05108819e-06  5.87577245e-11 -4.34451204e-13  1.07893923e-09 -6.32126473e-12  3.27613861e-14
 2.24339957e-08  2.24339957e-08  5.77722698e-06  7.33807891e-11 -5.42353783e-13  1.28999973e-09 -7.55563305e-12  3.91369459e-14
 2.34135798e-08  2.34135798e-08  6.56445961e-06  9.06671027e-11 -6.69835488e-13  1.52902533e-09 -8.95295431e-12  4.63480697e-14
 2.44776657e-08  2.44776657e-08  7.49711983e-06  1.12999199e-10 -8.34425737e-13  1.82483542e-09 -1.06814285e-11  5.52599504e-14
 2.55550331e-08  2.55550331e-08  8.52719313e-06  1.39896483e-10 -1.03252775e-12  2.16613118e-09 -1.26746800e-11  6.55267025e-14
 2.67089942e-08  2.67089942e-08  9.73044054e-06  1.74162630e-10 -1.28471587e-12  2.58261601e-09 -1.51057243e-11  7.80347268e-14
 2.78909776e-08  2.78909776e-08  1.10746818e-05  2.15915568e-10 -1.59175743e-12  3.06871831e-09 -1.79414470e-11  9.26074984e-14
 2.91456279e-08  2.91456279e-08  1.26307266e-05  2.68634109e-10 -1.97909759e-12  3.65660273e-09 -2.13687162e-11  1.10197345e-13
 3.04402362e-08  3.04402362e-08  1.43817452e-05  3.33347052e-10 -2.45411068e-12  4.34780314e-09 -2.53954839e-11  1.30834751e-13
 3.18066622e-08  3.18066622e-08  1.63970455e-05  4.14598032e-10 -3.04989718e-12  5.17901872e-09 -3.02342683e-11  1.55595476e-13
 3.32232795e-08  3.32232795e-08  1.86753462e-05  5.14809008e-10 -3.78387779e-12  6.16092607e-09 -3.59455647e-11  1.84771727e-13
 3.47132030e-08  3.47132030e-08  2.12880200e-05  6.40190474e-10 -4.70108003e-12  7.33758816e-09 -4.27835208e-11  2.19639302e-13
 3.62625805e-08  3.62625805e-08  2.42503490e-05  7.95305147e-10 -5.83425962e-12  8.73181754e-09 -5.08779323e-11  2.60830868e-13
 3.78885900e-08  3.78885900e-08  2.76396974e-05  9.88963545e-10 -7.24693678e-12  1.03989791e-08 -6.05466327e-11  3.09925993e-13
 3.95828808e-08  3.95828808e-08  3.14898790e-05  1.22902980e-09 -8.99533548e-12  1.23783821e-08 -7.20129396e-11  3.68009562e-13
 4.13586541e-08  4.13586541e-08  3.58887773e-05  1.52836284e-09 -1.11715564e-11  1.47422321e-08 -8.56890926e-11  4.37106151e-13
 4.32115074e-08  4.32115074e-08  4.08918358e-05  1.89993168e-09 -1.38677872e-11  1.75526477e-08 -1.01926660e-10  5.18909453e-13
 4.51520411e-08  4.51520411e-08  4.66028713e-05  2.36289431e-09 -1.72201944e-11  2.09065209e-08 -1.21275306e-10  6.16081493e-13
 4.71787485e-08  4.71787485e-08  5.31034336e-05  2.93812991e-09 -2.13761039e-11  2.48978903e-08 -1.44264385e-10  7.31141804e-13
 4.93006060e-08  4.93006060e-08  6.05199311e-05  3.65459772e-09 -2.65394914e-11  2.96595086e-08 -1.71641431e-10  8.67651405e-13
 5.15183014e-08  5.15183014e-08  6.89662210e-05  4.54545663e-09 -3.29422057e-11  3.53304732e-08 -2.04184010e-10  1.02925334e-12
 5.38398936e-08  5.38398936e-08  7.85996611e-05  5.65492576e-09 -4.08923865e-11  4.20953894e-08 -2.42922655e-10  1.22076110e-12
 5.62678147e-08  5.62678147e-08  8.95748112e-05  7.03526169e-09 -5.07513619e-11  5.01573779e-08 -2.88983056e-10  1.44734493e-12
 5.88097338e-08  5.88097338e-08  1.02090624e-04  8.75446857e-09 -6.29870027e-11  5.97758865e-08 -3.43798786e-10  1.71554428e-12
 6.14695595e-08  6.14695595e-08  1.16353586e-04  1.08945622e-08 -7.81587622e-11  7.12454926e-08 -4.08985219e-10  2.03259674e-12
 6.42549866e-08  6.42549866e-08  1.32617947e-04  1.35606790e-08 -9.69789897e-11  8.49336922e-08 -4.86548387e-10  2.40739363e-12
 6.71712729e-08  6.71712729e-08  1.51157021e-04  1.68813113e-08 -1.20309825e-10  1.01266342e-07 -5.78793719e-10  2.84995007e-12
 7.02264926e-08  7.02264926e-08  1.72298137e-04  2.10196891e-08 -1.49236996e-10  1.20767202e-07 -6.88538921e-10  3.37232132e-12
 7.34272405e-08  7.34272405e-08  1.96401165e-04  2.61770841e-08 -1.85084111e-10  1.44051492e-07 -8.19062935e-10  3.98821169e-12
 7.67823045e-08  7.67823045e-08  2.23889729e-04  3.26078669e-08 -2.29505661e-10  1.71869679e-07 -9.74333020e-10  4.71386478e-12
 8.02997123e-08  8.02997123e-08  2.55236378e-04  4.06276540e-08 -2.84526908e-10  2.05111607e-07 -1.15900246e-09  5.56780392e-12
 8.39893188e-08  8.39893188e-08  2.90991530e-04  5.06343158e-08 -3.52665978e-10  2.44858172e-07 -1.37866544e-09  6.57169842e-12
 8.78607966e-08  8.78607966e-08  3.31775072e-04  6.31238676e-08 -4.37011299e-10  2.92400015e-07 -1.63991635e-09  7.75021366e-12
 9.19254857e-08  9.19254857e-08  3.78304559e-04  7.87211690e-08 -5.41387109e-10  3.49302664e-07 -1.95065094e-09  9.13183168e-12
 9.61950584e-08  9.61950584e-08  4.31393422e-04  9.82083759e-08 -6.70485597e-10  4.17446309e-07 -2.32020638e-09  1.07487561e-11
 1.00682883e-07  1.00682883e-07  4.91980146e-04  1.22571592e-07 -8.30096095e-10  4.99113236e-07 -2.75973412e-09  1.26376155e-11
 1.05293567e-07  1.05293567e-07  5.59462764e-04  1.52276718e-07 -1.02234960e-09  5.94630102e-07 -3.26954826e-09  1.47856095e-11
 1.09596316e-07  1.09596316e-07  6.27331387e-04  1.84775431e-07 -1.23010454e-09  6.95201097e-07 -3.80183042e-09  1.69830771e-11
 1.13879546e-07  1.13879546e-07  6.99675459e-04  2.22228489e-07 -1.46656245e-09  8.07092435e-07 -4.38900859e-09  1.93572399e-11
 1.17885360e-07  1.17885360e-07  7.71720917e-04  2.62328129e-07 -1.71658105e-09  9.23072977e-07 -4.99247605e-09  2.17461725e-11
 1.21856037e-07  1.21856037e-07  8.47374454e-04  3.07377786e-07 -1.99394468e-09  1.04952647e-06 -5.64482178e-09  2.42735234e-11
 1.25624304e-07  1.25624304e-07  9.23115844e-04  3.55433181e-07 -2.28608190e-09  1.18070982e-06 -6.31575950e-09  2.68163315e-11
 1.29356279e-07  1.29356279e-07  1.00194453e-03  4.08529540e-07 -2.60475210e-09  1.32192812e-06 -7.03177677e-09  2.94696242e-11
 1.32937376e-07  1.32937376e-07  1.08117823e-03  4.65011844e-07 -2.93938098e-09  1.46852230e-06 -7.76857064e-09  3.21377127e-11
 1.36752617e-07  1.36752617e-07  1.16947861e-03  5.31590234e-07 -3.32845338e-09  1.63722326e-06 -8.60868405e-09  3.51058073e-11
 1.40554972e-07  1.40554972e-07  1.26147757e-03  6.04971067e-07 -3.75104855e-09  1.81878754e-06 -9.50400973e-09  3.81854863e-11
 1.44593600e-07  1.44593600e-07  1.36356285e-03  6.91132752e-07 -4.23951034e-09  2.02698990e-06 -1.05199482e-08  4.15795880e-11
 1.48672370e-07  1.48672370e-07  1.47122133e-03  7.87324033e-07 -4.77569816e-09  2.25401877e-06 -1.16153309e-08  4.51240623e-11
 1.52961710e-07  1.52961710e-07  1.58935635e-03  8.99098061e-07 -5.38752724e-09  2.51173208e-06 -1.28438243e-08  4.89623537e-11
 1.57328215e-07  1.57328215e-07  1.71475766e-03  1.02479331e-06 -6.06222424e-09  2.79489775e-06 -1.41762496e-08  5.29676190e-11
 1.61892299e-07  1.61892299e-07  1.85131888e-03  1.16985635e-06 -6.82461684e-09  3.11427145e-06 -1.56582564e-08  5.72361631e-11
 1.66566176e-07  1.66566176e-07  1.99689522e-03  1.33381450e-06 -7.66688035e-09  3.46712206e-06 -1.72712410e-08  6.16662034e-11
 1.71435913e-07  1.71435913e-07  2.15462859e-03  1.52225654e-06 -8.61129851e-09  3.86363876e-06 -1.90547862e-08  6.63108033e-11
 1.76445044e-07  1.76445044e-07  2.32318123e-03  1.73597507e-06 -9.65405561e-09  4.30344947e-06 -2.09988537e-08  7.10784492e-11
 1.81656518e-07  1.81656518e-07  2.50513961e-03  1.98098569e-06 -1.08151052e-08  4.79671158e-06 -2.31384200e-08  7.59791446e-11
 1.87035919e-07  1.87035919e-07  2.69977892e-03  2.25949954e-06 -1.20935304e-08  5.34542605e-06 -2.54702860e-08  8.09167182e-11
 1.92631298e-07  1.92631298e-07  2.90927860e-03  2.57830652e-06 -1.35067133e-08  5.96030330e-06 -2.80258054e-08  8.58542732e-11
 1.98424420e-07  1.98424420e-07  3.13337490e-03  2.94128721e-06 -1.50551173e-08  6.64590602e-06 -3.08069404e-08  9.06745482e-11
 2.04454482e-07  2.04454482e-07  3.37393919e-03  3.35643790e-06 -1.67525456e-08  7.41417030e-06 -3.38417278e-08  9.52849605e-11
 2.10715920e-07  2.10715920e-07  3.63103643e-03  3.82968294e-06 -1.85985041e-08  8.27261763e-06 -3.71353045e-08  9.95276350e-11
 2.17243826e-07  2.17243826e-07  3.90627836e-03  4.37078100e-06 -2.06009590e-08  9.23524663e-06 -4.07117237e-08  1.03239515e-10
 2.24043707e-07  2.24043707e-07  4.19992481e-03  4.98824579e-06 -2.27546451e-08  1.03132279e-05 -4.45765051e-08  1.06197755e-10
 2.31150832e-07  2.31150832e-07  4.51331756e-03  5.69434521e-06 -2.50573465e-08  1.15237621e-05 -4.87475314e-08  1.08146539e-10
 2.38582093e-07  2.38582093e-07  4.84674828e-03  6.50098525e-06 -2.74925905e-08  1.28828280e-05 -5.32262494e-08  1.08766606e-10
 2.46377790e-07  2.46377790e-07  5.20119518e-03  7.42400285e-06 -3.00400019e-08  1.44125397e-05 -5.80195525e-08  1.07677263e-10
 2.54569097e-07  2.54569097e-07  5.57674168e-03  8.47992773e-06 -3.26606596e-08  1.61356938e-05 -6.31170169e-08  1.04420910e-10
 2.63208533e-07  2.63208533e-07  5.97376674e-03  9.68979703e-06 -3.53013114e-08  1.80821974e-05 -6.85046979e-08  9.84457681e-11
 2.72349296e-07  2.72349296e-07  6.39172933e-03  1.10768252e-05 -3.78799100e-08  2.02854610e-05 -7.41454429e-08  8.90969541e-11
 2.82069957e-07  2.82069957e-07  6.82988464e-03  1.26701173e-05 -4.02817013e-08  2.27888014e-05 -7.99837622e-08  7.55811694e-11
 2.92465513e-07  2.92465513e-07  7.28622568e-03  1.45036299e-05 -4.23396543e-08  2.56445685e-05 -8.59241010e-08  5.69522542e-11
 3.03675071e-07  3.03675071e-07  7.75764323e-03  1.66208527e-05 -4.38144066e-08  2.89230066e-05 -9.18206183e-08  3.20462377e-11
 3.15895675e-07  3.15895675e-07  8.23858768e-03  1.90771208e-05 -4.43514754e-08  3.27188065e-05 -9.74376602e-08 -5.77383475e-13
 3.29447801e-07  3.29447801e-07  8.71994265e-03  2.19507523e-05 -4.34042619e-08  3.71747251e-05 -1.02390770e-07 -4.28194164e-11
 3.42284151e-07  3.42284151e-07  9.11404847e-03  2.47812113e-05 -4.08120626e-08  4.16062021e-05 -1.05570902e-07 -8.78378210e-11
 3.54969600e-07  3.54969600e-07  9.43309099e-03  2.76390928e-05 -3.64698777e-08  4.61539305e-05 -1.07003213e-07 -1.35979400e-10
 3.66964239e-07  3.66964239e-07  9.66048660e-03  3.03531030e-05 -3.06356126e-08  5.05740554e-05 -1.06570193e-07 -1.83626515e-10
 3.78864379e-07  3.78864379e-07  9.80550162e-03  3.30098771e-05 -2.31359846e-08  5.50378581e-05 -1.04224939e-07 -2.31604794e-10
 3.90436019e-07  3.90436019e-07  9.86131917e-03  3.55111871e-05 -1.42085908e-08  5.94156042e-05 -9.99500981e-08 -2.77575626e-10
 4.02123656e-07  4.02123656e-07  9.82459881e-03  3.79035108e-05 -3.60557377e-09  6.38328291e-05 -9.34945962e-08 -3.21879667e-10
 4.13794758e-07  4.13794758e-07  9.68732776e-03  4.01034789e-05  8.47168107e-09  6.81947752e-05 -8.47913347e-08 -3.62523156e-10
 4.25815423e-07  4.25815423e-07  9.43379758e-03  4.21112581e-05  2.23025845e-08  7.25852625e-05 -7.33829922e-08 -3.99083868e-10
 4.38178697e-07  4.38178697e-07  9.04758189e-03  4.38360134e-05  3.77658360e-08  7.69347907e-05 -5.90096960e-08 -4.29500899e-10
 4.51332384e-07  4.51332384e-07  8.49027059e-03  4.52131168e-05  5.52553999e-08  8.13062937e-05 -4.07713978e-08 -4.52198882e-10
 4.64465128e-07  4.64465128e-07  7.77767804e-03  4.60360974e-05  7.33721469e-08  8.53309899e-05 -1.95846803e-08 -4.63461386e-10
 4.77955575e-07  4.77955575e-07  6.87876924e-03  4.62222660e-05  9.21642810e-08  8.90265682e-05  5.15185267e-09 -4.61943674e-10
 4.91423922e-07  4.91423922e-07  5.80992967e-03  4.56601802e-05  1.10563432e-07  9.21846084e-05  3.26546642e-08 -4.46380440e-10
 5.05319139e-07  5.05319139e-07  4.52698569e-03  4.42163691e-05  1.28552560e-07  9.47904962e-05  6.36749465e-08 -4.15249517e-10
 5.19437160e-07  5.19437160e-07  3.03768019e-03  4.17764046e-05  1.45149590e-07  9.66597117e-05  9.75531559e-08 -3.68148202e-10
 5.31133170e-07  5.31133170e-07  1.66476016e-03  3.89693122e-05  1.57188848e-07  9.75471806e-05  1.27107646e-07 -3.17818403e-10
 5.41253155e-07  5.41253155e-07  3.77978183e-04  3.59415062e-05  1.66073959e-07  9.77865739e-05  1.53523691e-07 -2.66560451e-10
 5.50103914e-07  5.50103914e-07 -8.20033865e-04  3.28251748e-05  1.72503176e-07  9.75645212e-05  1.77087161e-07 -2.16376505e-10
 5.59478281e-07  5.59478281e-07 -2.15956930e-03  2.90394120e-05  1.77787691e-07  9.68618844e-05  2.02314999e-07 -1.58413601e-10
 5.69894670e-07  5.69894670e-07 -3.72852134e-03  2.42431430e-05  1.81655437e-07  9.54848881e-05  2.30417762e-07 -8.91148659e-11
 5.79478885e-07  5.79478885e-07 -5.24223806e-03  1.92828208e-05  1.83234095e-07  9.36373875e-05  2.56108619e-07 -2.16852819e-11
 5.90253733e-07  5.90253733e-07 -7.01728589e-03  1.30880276e-05  1.82629339e-07  9.08652155e-05  2.84490316e-07  5.70915769e-11
 6.00598511e-07  6.00598511e-07 -8.78710758e-03  6.53886863e-06  1.79609170e-07  8.74851691e-05  3.10940247e-07  1.34462542e-10
 6.11946185e-07  6.11946185e-07 -1.07923538e-02 -1.29712094e-06  1.73510308e-07  8.29395361e-05  3.38677024e-07  2.19740993e-10
 6.23135795e-07  6.23135795e-07 -1.28239632e-02 -9.65693106e-06  1.64656699e-07  7.75750488e-05  3.64339378e-07  3.02687490e-10
 6.33323426e-07  6.33323426e-07 -1.47105385e-02 -1.77789209e-05  1.54194918e-07  7.19131772e-05  3.85932584e-07  3.75944104e-10
 6.44757219e-07  6.44757219e-07 -1.68564166e-02 -2.74206635e-05  1.39842631e-07  6.46616580e-05  4.07775286e-07  4.54080852e-10
 6.55456683e-07  6.55456683e-07 -1.88792797e-02 -3.68922688e-05  1.24055504e-07  5.70093438e-05  4.25599948e-07  5.22053423e-10
 6.67748619e-07  6.67748619e-07 -2.12030079e-02 -4.82248487e-05  1.03355801e-07  4.71821889e-05  4.42542335e-07  5.92507662e-10
 6.79663502e-07  6.79663502e-07 -2.34369204e-02 -5.95778692e-05  8.09671985e-08  3.66059197e-05  4.54982872e-07  6.51764915e-10
 6.92758973e-07  6.92758973e-07 -2.58471555e-02 -7.23460898e-05  5.41386890e-08  2.38082654e-05  4.63709979e-07  7.05378458e-10
 7.05663154e-07  7.05663154e-07 -2.81510788e-02 -8.50859123e-05  2.58876282e-08  1.00273705e-05  4.66871905e-07  7.45497209e-10
 7.15929085e-07  7.15929085e-07 -2.99175327e-02 -9.52410587e-05  2.43047544e-09 -1.73905650e-06  4.65333106e-07  7.68020050e-10
 7.25765077e-07  7.25765077e-07 -3.15410828e-02 -1.04906567e-04 -2.05964201e-08 -1.36524436e-05  4.60349382e-07  7.81622122e-10
 7.35900963e-07  7.35900963e-07 -3.31300636e-02 -1.14718905e-04 -4.46291424e-08 -2.65510770e-05  4.51517310e-07  7.87466307e-10
 7.48278216e-07  7.48278216e-07 -3.49343423e-02 -1.26370553e-04 -7.40041204e-08 -4.30986804e-05  4.35546740e-07  7.83598545e-10
 7.59064068e-07  7.59064068e-07 -3.63684452e-02 -1.36124833e-04 -9.93242785e-08 -5.81781623e-05  4.16947281e-07  7.70726549e-10
 7.67457765e-07  7.67457765e-07 -3.73860111e-02 -1.43397836e-04 -1.18678147e-07 -7.03027812e-05  3.99456909e-07  7.54868697e-10
 7.76571226e-07  7.76571226e-07 -3.83833825e-02 -1.50915187e-04 -1.39170850e-07 -8.38119934e-05  3.77502175e-07  7.32228153e-10
 7.84787467e-07  7.84787467e-07 -3.91794089e-02 -1.57306035e-04 -1.57059177e-07 -9.62651924e-05  3.55100440e-07  7.07297577e-10
 7.95991173e-07  7.95991173e-07 -4.00940229e-02 -1.65341814e-04 -1.80345087e-07 -1.13595787e-04  3.20675621e-07  6.67069801e-10
 8.06834766e-07  8.06834766e-07 -4.07786084e-02 -1.72286389e-04 -2.01476100e-07 -1.30676874e-04  2.83246728e-07  6.22022885e-10
 8.19881797e-07  8.19881797e-07 -4.13212936e-02 -1.79423930e-04 -2.24803808e-07 -1.51499535e-04  2.33154050e-07  5.61062250e-10
 8.32639330e-07  8.32639330e-07 -4.15364156e-02 -1.84987953e-04 -2.45170258e-07 -1.72001666e-04  1.79208819e-07  4.95570020e-10
 8.43614955e-07  8.43614955e-07 -4.14587555e-02 -1.88564670e-04 -2.60615105e-07 -1.89637341e-04  1.29197543e-07  4.35495713e-10
 8.53102299e-07  8.53102299e-07 -4.11874482e-02 -1.90696150e-04 -2.72336005e-07 -2.04795881e-04  8.35377442e-08  3.81409398e-10
 8.62552027e-07  8.62552027e-07 -4.07222901e-02 -1.91886668e-04 -2.82451316e-07 -2.19737217e-04  3.60686827e-08  3.26073859e-10
 8.73169111e-07  8.73169111e-07 -3.99606445e-02 -1.92064268e-04 -2.91911920e-07 -2.36239779e-04 -1.93069442e-08  2.62738207e-10
 8.82885879e-07  8.82885879e-07 -3.90370456e-02 -1.91115384e-04 -2.98778655e-07 -2.50994618e-04 -7.15871278e-08  2.04131078e-10
 8.93457552e-07  8.93457552e-07 -3.77816751e-02 -1.88841749e-04 -3.04289217e-07 -2.66566977e-04 -1.29837239e-07  1.40129413e-10
 9.03257971e-07  9.03257971e-07 -3.63818498e-02 -1.85555542e-04 -3.07571073e-07 -2.80466249e-04 -1.84784768e-07  8.09169414e-11
 9.13672964e-07  9.13672964e-07 -3.46434045e-02 -1.80802620e-04 -3.09141159e-07 -2.94568843e-04 -2.43795610e-07  1.84455324e-11
 9.23974100e-07  9.23974100e-07 -3.26691968e-02 -1.74814670e-04 -3.08768441e-07 -3.07739257e-04 -3.02405100e-07 -4.26148190e-11
