 time            time            v(n1)           v(n2)           v(n3)           i(L1)           i(L2)           i(L3)
 1.56250000e-10  1.56250000e-10  5.85658984e-12  1.55198776e-18 -5.24019418e-22  3.61261555e-17 -2.12442985e-19  1.10835756e-21
 3.12500000e-10  3.12500000e-10  2.92829259e-11  1.03467871e-17 -3.66688396e-21  2.16755896e-16 -1.27461169e-18  6.64984315e-21
 6.25000000e-10  6.25000000e-10  1.60470057e-10  1.01736491e-16 -3.30878790e-20  1.54906734e-15 -9.10833808e-18  4.75187231e-20
 1.25000000e-09  1.25000000e-09  1.16497605e-09  3.58504395e-15 -7.34123476e-19  1.98608305e-14 -1.16691125e-16  6.08735889e-19
 2.50000000e-09  2.50000000e-09  9.16463684e-09  3.20147848e-13 -9.81005303e-18  3.05832834e-13 -1.78012810e-15  9.28500594e-18
 3.65912953e-09  3.65912953e-09  2.76590189e-08  9.69777883e-12  6.18783874e-15  1.24637513e-12 -6.73638381e-15  3.56955004e-17
 4.70947542e-09  4.70947542e-09  5.72944633e-08  5.33004652e-11  7.56814584e-14  3.13092856e-12 -1.48076997e-14  8.41742203e-17
 5.66073200e-09  5.66073200e-09  9.76523218e-08  1.80169422e-10  4.80218183e-13  6.16599877e-12 -2.30757592e-14  1.64895293e-16
 6.56604195e-09  6.56604195e-09  1.50504969e-07  4.86670402e-10  2.25078566e-12  1.07276501e-11 -2.47345067e-14  3.43368580e-16
 7.45066878e-09  7.45066878e-09  2.18015706e-07  1.14130315e-09  8.47175801e-12  1.72958514e-11 -4.63587713e-15  8.72343476e-16
 8.32217195e-09  8.32217195e-09  3.01965584e-07  2.41167539e-09  2.70032994e-11  2.63828605e-11  6.62736521e-14  2.52504567e-15
 9.17883249e-09  9.17883249e-09  4.03339818e-07  4.68411615e-09  7.53391323e-11  3.84592062e-11  2.36588867e-13  7.27634163e-15
 1.00180337e-08  1.00180337e-08  5.22638898e-07  8.48324912e-09  1.88488654e-10  5.39529842e-11  5.80198240e-13  1.95270975e-14
 1.08388904e-08  1.08388904e-08  6.60223797e-07  1.44966815e-08  4.31139040e-10  7.32756298e-11  1.20318305e-12  4.81563164e-14
 1.17260619e-08  1.17260619e-08  8.34197663e-07  2.44909589e-08  9.49013259e-10  9.96317239e-11  2.39047746e-12  1.17700369e-13
 1.25292777e-08  1.25292777e-08  1.01604805e-06  3.82907475e-08  1.87755195e-09  1.29142960e-10  4.16844414e-12  2.48511227e-13
 1.33701076e-08  1.33701076e-08  1.23304642e-06  5.95859913e-08  3.70913250e-09  1.66655199e-10  7.11923626e-12  5.20904414e-13
 1.41420522e-08  1.41420522e-08  1.45781045e-06  8.76160771e-08  6.74029361e-09  2.07821800e-10  1.12415486e-11  9.91072472e-13
 1.49364891e-08  1.49364891e-08  1.71630317e-06  1.27769227e-07  1.21095500e-08  2.57756685e-10  1.74970025e-11  1.86542608e-12
 1.56250000e-08  1.56250000e-08  1.96387778e-06  1.74674166e-07  1.96976495e-08  3.07892474e-10  2.51446714e-11  3.14374971e-12
 1.56994383e-08  1.56994383e-08  1.99210133e-06  1.80613168e-07  2.07477241e-08  3.13739963e-10  2.61158136e-11  3.31693693e-12
 1.58483148e-08  1.58483148e-08  2.04920399e-06  1.92904812e-07  2.29703788e-08  3.25635892e-10  2.81389992e-11  3.68580411e-12
 1.61460679e-08  1.61460679e-08  2.16659875e-06  2.19577045e-07  2.80602401e-08  3.50414691e-10  3.26014425e-11  4.54464846e-12
 1.65432809e-08  1.65432809e-08  2.33017469e-06  2.60062561e-07  3.64715838e-08  3.85657440e-10  3.95452474e-11  6.00034209e-12
 1.72684746e-08  1.72684746e-08  2.65034751e-06  3.50797947e-07  5.80613091e-08  4.56941038e-10  5.58053115e-11  9.93681526e-12
 1.79498954e-08  1.79498954e-08  2.97775115e-06  4.60400195e-07  8.87159854e-08  5.32676809e-10  7.62734170e-11  1.57632891e-11
 1.85961592e-08  1.85961592e-08  3.31341654e-06  5.92070099e-07  1.31636526e-07  6.12952062e-10  1.01530513e-10  2.40776672e-11
 1.91956714e-08  1.91956714e-08  3.64789079e-06  7.42735590e-07  1.87530252e-07  6.95320167e-10  1.31264697e-10  3.52278380e-11
 1.97602129e-08  1.97602129e-08  3.98434869e-06  9.14467881e-07  2.58992492e-07  7.80323996e-10  1.66032790e-10  4.98865917e-11
 2.02953649e-08  2.02953649e-08  4.32369884e-06  1.10890686e-06  3.48801818e-07  8.68004956e-10  2.06279800e-10  6.87722056e-11
 2.08047038e-08  2.08047038e-08  4.66629105e-06  1.32761329e-06  4.59947540e-07  9.58276433e-10  2.52415171e-10  9.26630516e-11
 2.12899262e-08  2.12899262e-08  5.01163020e-06  1.57165209e-06  5.95341068e-07  1.05082600e-09  3.04721683e-10  1.22334590e-10
 2.17522992e-08  2.17522992e-08  5.35913609e-06  1.84190364e-06  7.57872306e-07  1.14530372e-09  3.63413958e-10  1.58564430e-10
 2.21930510e-08  2.21930510e-08  5.70838018e-06  2.13922077e-06  9.50450251e-07  1.24138759e-09  4.28670013e-10  2.02135373e-10
 2.26134447e-08  2.26134447e-08  6.05914398e-06  2.46451791e-06  1.17603861e-06  1.33880393e-09  5.00650530e-10  2.53838368e-10
 2.30084548e-08  2.30084548e-08  6.40573184e-06  2.81285702e-06  1.43312758e-06  1.43573694e-09  5.78180855e-10  3.13413085e-10
 2.33772011e-08  2.33772011e-08  6.74542412e-06  3.18077884e-06  1.72037618e-06  1.53118153e-09  6.60371967e-10  3.80587454e-10
 2.37235771e-08  2.37235771e-08  7.07998377e-06  3.56927415e-06  2.03951882e-06  1.62540803e-09  7.47311037e-10  4.55777706e-10
 2.40513231e-08  2.40513231e-08  7.41163058e-06  3.98037525e-06  2.39327067e-06  1.71883963e-09  8.39311007e-10  5.39619846e-10
 2.43630968e-08  2.43630968e-08  7.74202788e-06  4.41594832e-06  2.78438551e-06  1.81175631e-09  9.36636824e-10  6.32747907e-10
 2.46604986e-08  2.46604986e-08  8.07208410e-06  4.87718472e-06  3.21511047e-06  1.90423146e-09  1.03938841e-09  7.35658806e-10
 2.49445632e-08  2.49445632e-08  8.40229669e-06  5.36482084e-06  3.68726657e-06  1.99622651e-09  1.14754949e-09  8.48725869e-10
 2.52161070e-08  2.52161070e-08  8.73305072e-06  5.87944697e-06  4.20248049e-06  2.08767447e-09  1.26105755e-09  9.72251029e-10
 2.54758824e-08  2.54758824e-08  9.06476836e-06  6.42170736e-06  4.76236992e-06  2.17852116e-09  1.37984899e-09  1.10650770e-09
 2.57591743e-08  2.57591743e-08  9.44529001e-06  7.07514889e-06  5.45749967e-06  2.28153569e-09  1.52200395e-09  1.27344150e-09
 2.60212006e-08  2.60212006e-08  9.81700206e-06  7.74557697e-06  6.19189893e-06  2.38066968e-09  1.66640874e-09  1.44948597e-09
 2.63004163e-08  2.63004163e-08  1.02368616e-05  8.54004060e-06  7.08694802e-06  2.49062443e-09  1.83551716e-09  1.66335747e-09
 2.65635215e-08  2.65635215e-08  1.06581563e-05  9.37545259e-06  8.05385056e-06  2.59855743e-09  2.01084215e-09  1.89319985e-09
 2.68365868e-08  2.68365868e-08  1.11257860e-05  1.03454062e-05  9.20545687e-06  2.71531475e-09  2.21116221e-09  2.16516382e-09
 2.70981593e-08  2.70981593e-08  1.16074979e-05  1.13886560e-05  1.04744553e-05  2.83200489e-09  2.42266794e-09  2.46227932e-09
 2.73645197e-08  2.73645197e-08  1.21379086e-05  1.25852035e-05  1.19634046e-05  2.95609094e-09  2.66026619e-09  2.80729009e-09
 2.76219877e-08  2.76219877e-08  1.26959402e-05  1.38932076e-05  1.36262300e-05  3.08150176e-09  2.91395783e-09  3.18770236e-09
 2.78804475e-08  2.78804475e-08  1.33097694e-05  1.53837558e-05  1.55592122e-05  3.21330307e-09  3.19557489e-09  3.62331600e-09
 2.81311527e-08  2.81311527e-08  1.39672395e-05  1.70324956e-05  1.77372577e-05  3.34736648e-09  3.49807329e-09  4.10547418e-09
 2.83799392e-08  2.83799392e-08  1.46934407e-05  1.89065999e-05  2.02555299e-05  3.48711732e-09  3.83092080e-09  4.65152893e-09
 2.85808134e-08  2.85808134e-08  1.53464725e-05  2.06306822e-05  2.26064410e-05  3.60534244e-09  4.12651159e-09  5.14878746e-09
 2.87770708e-08  2.87770708e-08  1.60533844e-05  2.25307065e-05  2.52283968e-05  3.72602984e-09  4.44166895e-09  5.69072932e-09
 2.89497761e-08  2.89497761e-08  1.67424396e-05  2.44098620e-05  2.78484497e-05  3.83691554e-09  4.74321778e-09  6.21974241e-09
 2.91091582e-08  2.91091582e-08  1.74446823e-05  2.63467070e-05  3.05726496e-05  3.94354938e-09  5.04404848e-09  6.75693273e-09
 2.92640313e-08  2.92640313e-08  1.81999328e-05  2.84486041e-05  3.35522586e-05  4.05155195e-09  5.35959163e-09  7.32982091e-09
 2.94158553e-08  2.94158553e-08  1.90236612e-05  3.07575682e-05  3.68490775e-05  4.16209195e-09  5.69382451e-09  7.94642543e-09
 2.95629535e-08  2.95629535e-08  1.99161191e-05  3.32727183e-05  4.04639913e-05  4.27410509e-09  6.04405596e-09  8.60254983e-09
 2.97036212e-08  2.97036212e-08  2.08740812e-05  3.59824327e-05  4.43815899e-05  4.38628714e-09  6.40631657e-09  9.29116871e-09
 2.98371354e-08  2.98371354e-08  2.18973508e-05  3.88829972e-05  4.85970724e-05  4.49791076e-09  6.77800882e-09  1.00074431e-08
 2.99635000e-08  2.99635000e-08  2.29894384e-05  4.19809186e-05  5.31200822e-05  4.60875651e-09  7.15797641e-09  1.07490794e-08
 3.00830197e-08  3.00830197e-08  2.41562166e-05  4.52892847e-05  5.79697542e-05  4.71884904e-09  7.54582324e-09  1.15151763e-08
 3.01960393e-08  3.01960393e-08  2.54045081e-05  4.88237926e-05  6.31690442e-05  4.82826334e-09  7.94132434e-09  1.23051379e-08
 3.03028589e-08  3.03028589e-08  2.67413289e-05  5.26006059e-05  6.87416007e-05  4.93704688e-09  8.34415936e-09  1.31181544e-08
 3.04037372e-08  3.04037372e-08  2.81737315e-05  5.66359258e-05  7.47111135e-05  5.04521450e-09  8.75388324e-09  1.39531350e-08
 3.04989171e-08  3.04989171e-08  2.97089521e-05  6.09464259e-05  8.11019431e-05  5.15276730e-09  9.16999065e-09  1.48088333e-08
 3.05886418e-08  3.05886418e-08  3.13546070e-05  6.55498228e-05  8.79399661e-05  5.25970872e-09  9.59197897e-09  1.56839775e-08
 3.06731588e-08  3.06731588e-08  3.31188246e-05  7.04652557e-05  9.52531455e-05  5.36605072e-09  1.00193793e-08  1.65773402e-08
 3.07527171e-08  3.07527171e-08  3.50103053e-05  7.57134535e-05  1.03071788e-04  5.47181322e-09  1.04517613e-08  1.74877560e-08
 3.08275636e-08  3.08275636e-08  3.70383426e-05  8.13167905e-05  1.11428633e-04  5.57702112e-09  1.08887272e-08  1.84141144e-08
 3.08979401e-08  3.08979401e-08  3.92128387e-05  8.72993256e-05  1.20358919e-04  5.68170176e-09  1.13299051e-08  1.93553511e-08
 3.09640812e-08  3.09640812e-08  4.15443332e-05  9.36868723e-05  1.29900486e-04  5.78588335e-09  1.17749459e-08  2.03104443e-08
 3.10262140e-08  3.10262140e-08  4.40440433e-05  1.00507104e-04  1.40093941e-04  5.88959433e-09  1.22235220e-08  2.12784162e-08
 3.10845576e-08  3.10845576e-08  4.67239157e-05  1.07789686e-04  1.50982850e-04  5.99286305e-09  1.26753279e-08  2.22583361e-08
 3.11393226e-08  3.11393226e-08  4.95966819e-05  1.15566412e-04  1.62613956e-04  6.09571758e-09  1.31300797e-08  2.32493228e-08
 3.11907111e-08  3.11907111e-08  5.26759177e-05  1.23871361e-04  1.75037396e-04  6.19818547e-09  1.35875151e-08  2.42505452e-08
 3.12389164e-08  3.12389164e-08  5.59761044e-05  1.32741040e-04  1.88306933e-04  6.30029353e-09  1.40473921e-08  2.52612224e-08
 3.12841230e-08  3.12841230e-08  5.95126935e-05  1.42214557e-04  2.02480197e-04  6.40206760e-09  1.45094881e-08  2.62806225e-08
 3.13265066e-08  3.13265066e-08  6.33021763e-05  1.52333783e-04  2.17618944e-04  6.50353243e-09  1.49735985e-08  2.73080608e-08
 3.13662343e-08  3.13662343e-08  6.73621575e-05  1.63143544e-04  2.33789332e-04  6.60471155e-09  1.54395359e-08  2.83428985e-08
 3.14034646e-08  3.14034646e-08  7.17114351e-05  1.74691816e-04  2.51062213e-04  6.70562722e-09  1.59071287e-08  2.93845408e-08
 3.14383478e-08  3.14383478e-08  7.63700854e-05  1.87029941e-04  2.69513457e-04  6.80630040e-09  1.63762201e-08  3.04324347e-08
 3.14710262e-08  3.14710262e-08  8.13595538e-05  2.00212855e-04  2.89224284e-04  6.90675077e-09  1.68466669e-08  3.14860671e-08
 3.15016343e-08  3.15016343e-08  8.67027516e-05  2.14299327e-04  3.10281636e-04  7.00699672e-09  1.73183390e-08  3.25449628e-08
 3.15302991e-08  3.15302991e-08  9.24241604e-05  2.29352230e-04  3.32778561e-04  7.10705539e-09  1.77911178e-08  3.36086824e-08
 3.15571404e-08  3.15571404e-08  9.85499422e-05  2.45438812e-04  3.56814628e-04  7.20694270e-09  1.82648956e-08  3.46768200e-08
 3.15822713e-08  3.15822713e-08  1.05108058e-04  2.62631004e-04  3.82496379e-04  7.30667342e-09  1.87395747e-08  3.57490012e-08
 3.16057981e-08  3.16057981e-08  1.12128393e-04  2.81005733e-04  4.09937801e-04  7.40626118e-09  1.92150663e-08  3.68248808e-08
 3.16278212e-08  3.16278212e-08  1.19642895e-04  3.00645271e-04  4.39260837e-04  7.50571859e-09  1.96912903e-08  3.79041415e-08
 3.16484347e-08  3.16484347e-08  1.27685714e-04  3.21637601e-04  4.70595932e-04  7.60505724e-09  2.01681739e-08  3.89864913e-08
 3.16677272e-08  3.16677272e-08  1.36293359e-04  3.44076811e-04  5.04082622e-04  7.70428778e-09  2.06456516e-08  4.00716620e-08
 3.16857822e-08  3.16857822e-08  1.45504864e-04  3.68063513e-04  5.39870154e-04  7.80342001e-09  2.11236639e-08  4.11594075e-08
 3.17026778e-08  3.17026778e-08  1.55361961e-04  3.93705295e-04  5.78118158e-04  7.90246289e-09  2.16021573e-08  4.22495021e-08
 3.17184876e-08  3.17184876e-08  1.65909271e-04  4.21117205e-04  6.18997361e-04  8.00142463e-09  2.20810833e-08  4.33417389e-08
 3.17332805e-08  3.17332805e-08  1.77194501e-04  4.50422260e-04  6.62690355e-04  8.10031273e-09  2.25603985e-08  4.44359286e-08
 3.17471212e-08  3.17471212e-08  1.89268665e-04  4.81752004e-04  7.09392416e-04  8.19913404e-09  2.30400634e-08  4.55318978e-08
 3.17600703e-08  3.17600703e-08  2.02186309e-04  5.15247097e-04  7.59312378e-04  8.29789480e-09  2.35200427e-08  4.66294879e-08
 3.17721849e-08  3.17721849e-08  2.16005758e-04  5.51057942e-04  8.12673572e-04  8.39660072e-09  2.40003046e-08  4.77285542e-08
 3.17835183e-08  3.17835183e-08  2.30789379e-04  5.89345361e-04  8.69714829e-04  8.49525697e-09  2.44808202e-08  4.88289641e-08
 3.17941205e-08  3.17941205e-08  2.46603863e-04  6.30281321e-04  9.30691550e-04  8.59386827e-09  2.49615637e-08  4.99305969e-08
 3.18040384e-08  3.18040384e-08  2.63520521e-04  6.74049700e-04  9.95876856e-04  8.69243890e-09  2.54425121e-08  5.10333422e-08
 3.18133158e-08  3.18133158e-08  2.81615609e-04  7.20847116e-04  1.06556281e-03  8.79097276e-09  2.59236443e-08  5.21370993e-08
 3.18219939e-08  3.18219939e-08  3.00976333e-04  7.70898366e-04  1.14008336e-03  8.88947467e-09  2.64049479e-08  5.32417912e-08
 3.18301986e-08  3.18301986e-08  3.21922187e-04  8.25028583e-04  1.22066618e-03  8.98904603e-09  2.68917771e-08  5.43596701e-08
 3.18377971e-08  3.18377971e-08  3.44127871e-04  8.82396380e-04  1.30605792e-03  9.08765109e-09  2.73741495e-08  5.54677729e-08
 3.18449652e-08  3.18449652e-08  3.68098784e-04  9.44306978e-04  1.39820073e-03  9.18711987e-09  2.78609902e-08  5.65865631e-08
 3.18515993e-08  3.18515993e-08  3.93490229e-04  1.00986952e-03  1.49576802e-03  9.28555786e-09  2.83430021e-08  5.76946390e-08
 3.18578623e-08  3.18578623e-08  4.20924632e-04  1.08069068e-03  1.60115008e-03  9.38493665e-09  2.88298172e-08  5.88141103e-08
 3.18637159e-08  3.18637159e-08  4.50287832e-04  1.15647503e-03  1.71390654e-03  9.48429731e-09  2.93167211e-08  5.99341101e-08
 3.18691881e-08  3.18691881e-08  4.81722047e-04  1.23758915e-03  1.83458215e-03  9.58366580e-09  2.98038231e-08  6.10548621e-08
 3.18742996e-08  3.18742996e-08  5.15345562e-04  1.32433784e-03  1.96362973e-03  9.68296524e-09  3.02907301e-08  6.21754357e-08
 3.18790758e-08  3.18790758e-08  5.51320135e-04  1.41713801e-03  2.10166887e-03  9.78222696e-09  3.07775809e-08  6.32961268e-08
 3.18835394e-08  3.18835394e-08  5.89815954e-04  1.51642828e-03  2.24935143e-03  9.88146938e-09  3.12644529e-08  6.44170914e-08
 3.18877114e-08  3.18877114e-08  6.31013981e-04  1.62267499e-03  2.40737045e-03  9.98070500e-09  3.17513956e-08  6.55384240e-08
 3.18916107e-08  3.18916107e-08  6.75104253e-04  1.73636787e-03  2.57645371e-03  1.00799363e-08  3.22384104e-08  6.66601096e-08
 3.18952552e-08  3.18952552e-08  7.22288662e-04  1.85802717e-03  2.75737438e-03  1.01791623e-08  3.27254834e-08  6.77820998e-08
 3.18986613e-08  3.18986613e-08  7.72782962e-04  1.98820883e-03  2.95095866e-03  1.02783818e-08  3.32126001e-08  6.89043458e-08
 3.19018446e-08  3.19018446e-08  8.26818382e-04  2.12750868e-03  3.15809204e-03  1.03775946e-08  3.36997513e-08  7.00268128e-08
 3.19048197e-08  3.19048197e-08  8.84642731e-04  2.27656523e-03  3.37972346e-03  1.04768010e-08  3.41869323e-08  7.11494772e-08
 3.19076001e-08  3.19076001e-08  9.46521381e-04  2.43606225e-03  3.61686913e-03  1.05760018e-08  3.46741405e-08  7.22723214e-08
 3.19101987e-08  3.19101987e-08  1.01273834e-03  2.60673152e-03  3.87061659e-03  1.06751977e-08  3.51613738e-08  7.33953300e-08
 3.19126272e-08  3.19126272e-08  1.08359749e-03  2.78935598e-03  4.14212943e-03  1.07743893e-08  3.56486301e-08  7.45184885e-08
 3.19148967e-08  3.19148967e-08  1.15942396e-03  2.98477333e-03  4.43265263e-03  1.08735770e-08  3.61359070e-08  7.56417829e-08
 3.19170178e-08  3.19170178e-08  1.24056562e-03  3.19387986e-03  4.74351827e-03  1.09727613e-08  3.66232026e-08  7.67652004e-08
 3.19190001e-08  3.19190001e-08  1.32739475e-03  3.41763466e-03  5.07615173e-03  1.10719424e-08  3.71105149e-08  7.78887291e-08
 3.19208526e-08  3.19208526e-08  1.42030966e-03  3.65706400e-03  5.43207826e-03  1.11711208e-08  3.75978421e-08  7.90123584e-08
 3.19225839e-08  3.19225839e-08  1.51973662e-03  3.91326608e-03  5.81292998e-03  1.12702966e-08  3.80851828e-08  8.01360789e-08
 3.19242019e-08  3.19242019e-08  1.62613175e-03  4.18741599e-03  6.22045334e-03  1.13694701e-08  3.85725355e-08  8.12598819e-08
 3.19257140e-08  3.19257140e-08  1.73998313e-03  4.48077119e-03  6.65651715e-03  1.14686417e-08  3.90598992e-08  8.23837595e-08
 3.19271271e-08  3.19271271e-08  1.86181303e-03  4.79467720e-03  7.12312114e-03  1.15678114e-08  3.95472726e-08  8.35077048e-08
 3.19284477e-08  3.19284477e-08  1.99218031e-03  5.13057380e-03  7.62240512e-03  1.16669795e-08  4.00346550e-08  8.46317112e-08
 3.19296819e-08  3.19296819e-08  2.13168300e-03  5.49000164e-03  8.15665879e-03  1.17661461e-08  4.05220452e-08  8.57557731e-08
 3.19308353e-08  3.19308353e-08  2.28096101e-03  5.87460931e-03  8.72833228e-03  1.18653115e-08  4.10094427e-08  8.68798851e-08
 3.19319132e-08  3.19319132e-08  2.44069909e-03  6.28616085e-03  9.34004733e-03  1.19644757e-08  4.14968466e-08  8.80040426e-08
 3.19329205e-08  3.19329205e-08  2.61162996e-03  6.72654393e-03  9.99460938e-03  1.20636388e-08  4.19842564e-08  8.91282411e-08
 3.19338619e-08  3.19338619e-08  2.79453768e-03  7.19777842e-03  1.06950204e-02  1.21628010e-08  4.24716715e-08  9.02524769e-08
 3.19347417e-08  3.19347417e-08  2.99026124e-03  7.70202573e-03  1.14444926e-02  1.22619624e-08  4.29590914e-08  9.13767463e-08
 3.19355639e-08  3.19355639e-08  3.19969840e-03  8.24159866e-03  1.22464633e-02  1.23611231e-08  4.34465155e-08  9.25010463e-08
 3.19363322e-08  3.19363322e-08  3.42380983e-03  8.81897205e-03  1.31046106e-02  1.24602830e-08  4.39339436e-08  9.36253739e-08
 3.19370503e-08  3.19370503e-08  3.66362350e-03  9.43679411e-03  1.40228703e-02  1.25594424e-08  4.44213752e-08  9.47497265e-08
 3.19377214e-08  3.19377214e-08  3.92023938e-03  1.00978986e-02  1.50054539e-02  1.26586013e-08  4.49088100e-08  9.58741019e-08
 3.19383485e-08  3.19383485e-08  4.19483452e-03  1.08053177e-02  1.60568679e-02  1.27577597e-08  4.53962477e-08  9.69984978e-08
 3.19389345e-08  3.19389345e-08  4.48866844e-03  1.15622962e-02  1.71819346e-02  1.28569176e-08  4.58836881e-08  9.81229123e-08
 3.19394822e-08  3.19394822e-08  4.80308886e-03  1.23723061e-02  1.83858140e-02  1.29560753e-08  4.63711309e-08  9.92473438e-08
 3.19399941e-08  3.19399941e-08  5.13953797e-03  1.32390626e-02  1.96740277e-02  1.30552325e-08  4.68585760e-08  1.00371791e-07
 3.19404724e-08  3.19404724e-08  5.49955894e-03  1.41665412e-02  2.10524841e-02  1.31543895e-08  4.73460230e-08  1.01496251e-07
 3.19409194e-08  3.19409194e-08  5.88480311e-03  1.51589959e-02  2.25275056e-02  1.32535463e-08  4.78334719e-08  1.02620725e-07
 3.19413372e-08  3.19413372e-08  6.29703745e-03  1.62209789e-02  2.41058575e-02  1.33527028e-08  4.83209225e-08  1.03745210e-07
 3.19417276e-08  3.19417276e-08  6.73815275e-03  1.73573611e-02  2.57947789e-02  1.34518592e-08  4.88083748e-08  1.04869706e-07
 3.19420924e-08  3.19420924e-08  7.21017226e-03  1.85733546e-02  2.76020162e-02  1.35510153e-08  4.92958285e-08  1.05994211e-07
 3.19424334e-08  3.19424334e-08  7.71526096e-03  1.98745370e-02  2.95358586e-02  1.36501714e-08  4.97832836e-08  1.07118726e-07
