 time            time            v(n1)           v(n2)           v(n3)           i(L1)           i(L2)           i(L3)
 1.56250000e-10  1.56250000e-10  5.85658984e-12  1.55198776e-18 -5.24019418e-22  3.61261555e-17 -2.12442985e-19  1.10835756e-21
 3.12500000e-10  3.12500000e-10  2.92829259e-11  9.38253407e-18 -3.66798537e-21  2.16755896e-16 -1.27462297e-18  6.64990199e-21
 6.25000000e-10  6.25000000e-10  1.60470057e-10  6.79878173e-17 -3.31433555e-20  1.54906734e-15 -9.10883219e-18  4.75212998e-20
 1.25000000e-09  1.25000000e-09  1.16497605e-09  9.15240079e-16 -7.47826038e-19  1.98608308e-14 -1.16766965e-16  6.09130950e-19
 2.50000000e-09  2.50000000e-09  9.16463684e-09  1.55880062e-14 -2.25864751e-17  3.05832888e-13 -1.79736455e-15  9.37381243e-18
 3.65912955e-09  3.65912955e-09  2.76590186e-08  6.72416238e-14 -1.19551237e-16  1.24637696e-12 -7.32300903e-15  3.81843397e-17
 4.70947565e-09  4.70947565e-09  5.72944623e-08  1.76210364e-13 -3.54313746e-16  3.13093998e-12 -1.83917636e-14  9.58835770e-17
 5.66073325e-09  5.66073325e-09  9.76523285e-08  3.59618096e-13 -7.90910019e-16  6.16604301e-12 -3.62136184e-14  1.88764573e-16
 6.56604667e-09  6.56604667e-09  1.50505023e-07  6.46668042e-13 -1.53127599e-15  1.07277903e-11 -6.29931078e-14  3.28296482e-16
 7.45068307e-09  7.45068307e-09  2.18015945e-07  1.07629997e-12 -2.71777514e-15  1.72962477e-11 -1.01542927e-13  5.29104950e-16
 8.32220943e-09  8.32220943e-09  3.01966430e-07  1.69333543e-12 -4.52632884e-15  2.63838974e-11 -1.54863369e-13  8.06776900e-16
 9.17892095e-09  9.17892095e-09  4.03342468e-07  2.54342088e-12 -7.15137012e-15  3.84617563e-11 -2.25708684e-13  1.17560049e-15
 1.00182257e-08  1.00182257e-08  5.22646413e-07  3.67235507e-12 -1.08009721e-14  5.39589351e-11 -3.16584761e-13  1.64855362e-15
 1.08392787e-08  1.08392787e-08  6.60243255e-07  5.12749998e-12 -1.56992998e-14  7.32888734e-11 -4.29903183e-13  2.23810628e-15
 1.17265932e-08  1.17265932e-08  8.34198021e-07  7.17990428e-12 -2.28782570e-14  9.96535960e-11 -5.84412435e-13  3.04165366e-15
 1.25301605e-08  1.25301605e-08  1.01603916e-06  9.55245398e-12 -3.14611672e-14  1.29183403e-10 -7.57415003e-13  3.94102586e-15
 1.33715386e-08  1.33715386e-08  1.23300052e-06  1.26617801e-11 -4.30551189e-14  1.66728546e-10 -9.77303869e-13  5.08367232e-15
 1.41444195e-08  1.41444195e-08  1.45773924e-06  1.61751985e-11 -5.65134191e-14  2.07956094e-10 -1.21867997e-12  6.33744987e-15
 1.49403905e-08  1.49403905e-08  1.71620389e-06  2.05586751e-11 -7.37186419e-14  2.58003875e-10 -1.51159857e-12  7.85829347e-15
 1.56250000e-08  1.56250000e-08  1.96153792e-06  2.50336228e-11 -9.16551370e-14  3.07844601e-10 -1.80321273e-12  9.37172696e-15
 1.56996671e-08  1.56996671e-08  1.98972359e-06  2.55660815e-11 -9.38097890e-14  3.13706185e-10 -1.83750315e-12  9.54965287e-15
 1.58490013e-08  1.58490013e-08  2.04673984e-06  2.66525703e-11 -9.82170537e-14  3.25630870e-10 -1.90726005e-12  9.91158716e-15
 1.61476698e-08  1.61476698e-08  2.16390411e-06  2.89322006e-11 -1.07517944e-13  3.50469652e-10 -2.05254729e-12  1.06653103e-14
 1.65462005e-08  1.65462005e-08  2.32706168e-06  3.22129106e-11 -1.21024936e-13  3.85805494e-10 -2.25920083e-12  1.17371558e-14
 1.72770562e-08  1.72770562e-08  2.64735617e-06  3.90078306e-11 -1.49409734e-13  4.57607777e-10 -2.67900458e-12  1.39137191e-14
 1.79665437e-08  1.79665437e-08  2.97539673e-06  4.64269739e-11 -1.80926714e-13  5.34228768e-10 -3.12682771e-12  1.62344434e-14
 1.88346341e-08  1.88346341e-08  3.42572360e-06  5.73316467e-11 -2.28063212e-13  6.44084005e-10 -3.76864212e-12  1.95586355e-14
 1.96374380e-08  1.96374380e-08  3.88069729e-06  6.91417329e-11 -2.79991078e-13  7.60068010e-10 -4.44597703e-12  2.30646807e-14
 2.05596704e-08  2.05596704e-08  4.45113651e-06  8.50186641e-11 -3.50966165e-13  9.12001319e-10 -5.33285002e-12  2.76523204e-14
 2.14481672e-08  2.14481672e-08  5.05107438e-06  1.02927442e-10 -4.32316246e-13  1.07893762e-09 -6.30682772e-12  3.26869487e-14
 2.24340079e-08  2.24340079e-08  5.77721136e-06  1.26182381e-10 -5.39604436e-13  1.28999799e-09 -7.53760382e-12  3.90440671e-14
 2.34135941e-08  2.34135941e-08  6.56444192e-06  1.53241883e-10 -6.66336302e-13  1.52902345e-09 -8.93067835e-12  4.62334155e-14
 2.44776827e-08  2.44776827e-08  7.49709985e-06  1.87665737e-10 -8.29926008e-13  1.82483347e-09 -1.06536665e-11  5.51172022e-14
 2.55550529e-08  2.55550529e-08  8.52717054e-06  2.28510075e-10 -1.02678291e-12  2.16612918e-09 -1.26403100e-11  6.53501632e-14
 2.67090173e-08  2.67090173e-08  9.73041507e-06  2.79790573e-10 -1.27733144e-12  2.58261411e-09 -1.50629360e-11  7.78152046e-14
 2.78910044e-08  2.78910044e-08  1.10746531e-05  3.41395208e-10 -1.58230731e-12  3.06871662e-09 -1.78884006e-11  9.23356862e-14
 2.91456590e-08  2.91456590e-08  1.26306943e-05  4.18113337e-10 -1.96694969e-12  3.65660152e-09 -2.13027173e-11  1.09859627e-13
 3.04402722e-08  3.04402722e-08  1.43817090e-05  5.11032527e-10 -2.43853644e-12  4.34780273e-09 -2.53135848e-11  1.30416286e-13
 3.18067041e-08  3.18067041e-08  1.63970050e-05  6.26189080e-10 -3.02987045e-12  5.17901971e-09 -3.01324048e-11  1.55075841e-13
 3.32233281e-08  3.32233281e-08  1.86753011e-05  7.66434164e-10 -3.75816585e-12  6.16092926e-09 -3.58190767e-11  1.84127594e-13
 3.47132597e-08  3.47132597e-08  2.12879701e-05  9.39766743e-10 -4.66800192e-12  7.33759485e-09 -4.26262220e-11  2.18839783e-13
 3.62626470e-08  3.62626470e-08  2.42502943e-05  1.15166896e-09 -5.79174207e-12  8.73182963e-09 -5.06825144e-11  2.59839630e-13
 3.78886684e-08  3.78886684e-08  2.76396381e-05  1.41319334e-09 -7.19220916e-12  1.03989996e-08 -6.03036222e-11  3.08696100e-13
 3.95829741e-08  3.95829741e-08  3.14898159e-05  1.73378771e-09 -8.92492257e-12  1.23784155e-08 -7.17109307e-11  3.66484773e-13
 4.13587661e-08  4.13587661e-08  3.58887120e-05  2.12922767e-09 -1.10808723e-11  1.47422857e-08 -8.53135213e-11  4.35214961e-13
 4.32116433e-08  4.32116433e-08  4.08917713e-05  2.61498155e-09 -1.37510177e-11  1.75527324e-08 -1.01459779e-10  5.16565208e-13
 4.51522083e-08  4.51522083e-08  4.66028127e-05  3.21411105e-09 -1.70697276e-11  2.09066543e-08 -1.20694670e-10  6.13175179e-13
 4.71789568e-08  4.71789568e-08  5.31033893e-05  3.95127223e-09 -2.11822233e-11  2.48980997e-08 -1.43542436e-10  7.27540431e-13
 4.93008692e-08  4.93008692e-08  6.05199150e-05  4.86075911e-09 -2.62895406e-11  2.96598377e-08 -1.70743533e-10  8.63188900e-13
 5.15186388e-08  5.15186388e-08  6.89662550e-05  5.98130664e-09 -3.26199616e-11  3.53309912e-08 -2.03067444e-10  1.02372642e-12
 5.38403324e-08  5.38403324e-08  7.85997807e-05  7.36453525e-09 -4.04767896e-11  4.20962076e-08 -2.41533959e-10  1.21391735e-12
 5.62683930e-08  5.62683930e-08  8.95750717e-05  9.07083108e-09 -5.02153573e-11  5.01586739e-08 -2.87256139e-10  1.43887510e-12
 5.88105054e-08  5.88105054e-08  1.02091114e-04  1.11785833e-08 -6.22955654e-11  5.97779470e-08 -3.41651223e-10  1.70506634e-12
 6.14706008e-08  6.14706008e-08  1.16354441e-04  1.37815900e-08 -7.72668676e-11  7.12487788e-08 -4.06315072e-10  2.01964325e-12
 6.42564061e-08  6.42564061e-08  1.32619385e-04  1.69996969e-08 -9.58285135e-11  8.49389516e-08 -4.83228980e-10  2.39139044e-12
 6.71732248e-08  6.71732248e-08  1.51159379e-04  2.09784558e-08 -1.18826131e-10  1.01274784e-07 -5.74668656e-10  2.83019737e-12
 7.02291972e-08  7.02291972e-08  1.72301948e-04  2.59021286e-08 -1.47324105e-10  1.20780791e-07 -6.83414826e-10  3.34796592e-12
 7.34310122e-08  7.34310122e-08  1.96407260e-04  3.19967852e-08 -1.82619210e-10  1.44073424e-07 -8.12702191e-10  3.95822149e-12
 7.67875937e-08  7.67875937e-08  2.23899419e-04  3.95472294e-08 -2.26331807e-10  1.71905166e-07 -9.66444244e-10  4.67699558e-12
 8.03071646e-08  8.03071646e-08  2.55251719e-04  4.89055026e-08 -2.80444775e-10  2.05169155e-07 -1.14923120e-09  5.52257075e-12
 8.39998622e-08  8.39998622e-08  2.91015767e-04  6.05143172e-08 -3.47423685e-10  2.44951711e-07 -1.36658356e-09  6.51634463e-12
 8.78757670e-08  8.78757670e-08  3.31813322e-04  7.49243094e-08 -4.30293670e-10  2.92552382e-07 -1.62501369e-09  7.68269367e-12
 9.19468121e-08  9.19468121e-08  3.78364923e-04  9.28284384e-08 -5.32804339e-10  3.49551414e-07 -1.93232976e-09  9.04980844e-12
 9.62255315e-08  9.62255315e-08  4.31488750e-04  1.15093921e-07 -6.59564590e-10  4.17853332e-07 -2.29778580e-09  1.06496390e-11
 1.00726555e-07  1.00726555e-07  4.92130904e-04  1.42815726e-07 -8.16277934e-10  4.99780876e-07 -2.73247143e-09  1.25186583e-11
 1.05120878e-07  1.05120878e-07  5.56139085e-04  1.74644225e-07 -9.94747528e-10  5.90532533e-07 -3.20972270e-09  1.45316854e-11
 1.09379846e-07  1.09379846e-07  6.22779868e-04  2.10494818e-07 -1.19399755e-09  6.89407756e-07 -3.72503981e-09  1.66627838e-11
 1.13477203e-07  1.13477203e-07  6.91221372e-04  2.50121413e-07 -1.41216902e-09  7.95382675e-07 -4.27238180e-09  1.88811324e-11
 1.17435664e-07  1.17435664e-07  7.61406239e-04  2.93652528e-07 -1.64947833e-09  9.08518808e-07 -4.85141866e-09  2.11801650e-11
 1.21266892e-07  1.21266892e-07  8.33150892e-04  3.41134155e-07 -1.90566547e-09  1.02867187e-06 -5.46076145e-09  2.35491975e-11
 1.24990547e-07  1.24990547e-07  9.06474388e-04  3.92741126e-07 -2.18113999e-09  1.15603243e-06 -6.10071481e-09  2.59842290e-11
 1.28615524e-07  1.28615524e-07  9.81239538e-04  4.48544090e-07 -2.47572082e-09  1.29053133e-06 -6.77025343e-09  2.84761162e-11
 1.32318415e-07  1.32318415e-07  1.06102655e-03  5.11628425e-07 -2.80483147e-09  1.43913085e-06 -7.50283861e-09  3.11396986e-11
 1.36117042e-07  1.36117042e-07  1.14638698e-03  5.83181689e-07 -3.17335008e-09  1.60386202e-06 -8.30658762e-09  3.39888699e-11
 1.40046777e-07  1.40046777e-07  1.23836554e-03  6.64988348e-07 -3.58881148e-09  1.78793043e-06 -9.19475746e-09  3.70511111e-11
 1.44103073e-07  1.44103073e-07  1.33711183e-03  7.58285535e-07 -4.05542482e-09  1.99307793e-06 -1.01728482e-08  4.03218301e-11
 1.48298996e-07  1.48298996e-07  1.44316779e-03  8.64879065e-07 -4.57968107e-09  2.22210977e-06 -1.12507751e-08  4.38064696e-11
 1.52632698e-07  1.52632698e-07  1.55666967e-03  9.86425664e-07 -5.16662164e-09  2.47728098e-06 -1.24350237e-08  4.74933370e-11
 1.57116377e-07  1.57116377e-07  1.67805981e-03  1.12518792e-06 -5.82337287e-09  2.76188107e-06 -1.37359264e-08  5.13760625e-11
 1.61753233e-07  1.61753233e-07  1.80747314e-03  1.28344219e-06 -6.55605076e-09  3.07893643e-06 -1.51613868e-08  5.54325072e-11
 1.66556268e-07  1.66556268e-07  1.94521971e-03  1.46409577e-06 -7.37239518e-09  3.43242196e-06 -1.67221243e-08  5.96387322e-11
 1.71532700e-07  1.71532700e-07  2.09132551e-03  1.67021355e-06 -8.27921303e-09  3.82624512e-06 -1.84267250e-08  6.39527237e-11
 1.76697064e-07  1.76697064e-07  2.24587029e-03  1.90555661e-06 -9.28435790e-09  4.26522876e-06 -2.02855186e-08  6.83223248e-11
 1.82060797e-07  1.82060797e-07  2.40864290e-03  2.17421934e-06 -1.03945489e-08  4.75433149e-06 -2.23066044e-08  7.26719216e-11
 1.87641534e-07  1.87641534e-07  2.57936922e-03  2.48111540e-06 -1.16167000e-08  5.29946044e-06 -2.44985373e-08  7.69048387e-11
 1.93456271e-07  1.93456271e-07  2.75745142e-03  2.83172068e-06 -1.29558796e-08  5.90689266e-06 -2.68669478e-08  8.08909934e-11
 1.99528211e-07  1.99528211e-07  2.94211529e-03  3.23253442e-06 -1.44158644e-08  6.58397390e-06 -2.94160695e-08  8.44635314e-11
 2.05882624e-07  2.05882624e-07  3.13221777e-03  3.69093771e-06 -1.59968765e-08  7.33873713e-06 -3.21455435e-08  8.74052117e-11
 2.12552415e-07  2.12552415e-07  3.32634457e-03  4.21567371e-06 -1.76949966e-08  8.18057033e-06 -3.50506480e-08  8.94381374e-11
 2.19576427e-07  2.19576427e-07  3.52268309e-03  4.81686261e-06 -1.94989717e-08  9.12009100e-06 -3.81187098e-08  9.02057573e-11
 2.27005102e-07  2.27005102e-07  3.71910138e-03  5.50659216e-06 -2.13875293e-08  1.01699537e-05 -4.13275202e-08  8.92527231e-11
 2.34902077e-07  2.34902077e-07  3.91308687e-03  6.29921988e-06 -2.33235744e-08  1.13452115e-05 -4.46402149e-08  8.59967572e-11
 2.43352773e-07  2.43352773e-07  4.10182317e-03  7.21233375e-06 -2.52466843e-08  1.26647444e-05 -4.80002413e-08  7.96904857e-11
 2.52473671e-07  2.52473671e-07  4.28216835e-03  8.26782699e-06 -2.70596812e-08  1.41529824e-05 -5.13214421e-08  6.93673986e-11
 2.62434202e-07  2.62434202e-07  4.45067965e-03  9.49429261e-06 -2.86065755e-08  1.58438622e-05 -5.44732778e-08  5.37547699e-11
 2.73497685e-07  2.73497685e-07  4.60347083e-03  1.09314293e-05 -2.96299063e-08  1.77884049e-05 -5.72516167e-08  3.11204291e-11
 2.86125520e-07  2.86125520e-07  4.73579133e-03  1.26412566e-05 -2.96773894e-08  2.00739744e-05 -5.93155890e-08 -1.06858164e-12
 2.98640827e-07  2.98640827e-07  4.82590786e-03  1.43760072e-05 -2.83305085e-08  2.23891429e-05 -6.00402491e-08 -3.86902223e-11
 3.10655559e-07  3.10655559e-07  4.87728395e-03  1.60445272e-05 -2.55668119e-08  2.46412167e-05 -5.93855097e-08 -7.88246062e-11
 3.22301489e-07  3.22301489e-07  4.89704826e-03  1.76306928e-05 -2.14095322e-08  2.68369220e-05 -5.74186838e-08 -1.19890036e-10
 3.34915837e-07  3.34915837e-07  4.88773129e-03  1.92730767e-05 -1.52209445e-08  2.92135086e-05 -5.37730673e-08 -1.64576461e-10
 3.46506632e-07  3.46506632e-07  4.85258825e-03  2.06776951e-05 -8.02406411e-09  3.13831350e-05 -4.90406306e-08 -2.03775921e-10
 3.59018004e-07  3.59018004e-07  4.78697669e-03  2.20414604e-05  1.23847772e-09  3.36959232e-05 -4.24936411e-08 -2.41623424e-10
 3.71064919e-07  3.71064919e-07  4.69680580e-03  2.31693729e-05  1.14173463e-08  3.58815064e-05 -3.48573319e-08 -2.71445887e-10
 3.84361236e-07  3.84361236e-07  4.56578163e-03  2.41622071e-05  2.37305226e-08  3.82307196e-05 -2.50486158e-08 -2.94297698e-10
 3.97692491e-07  3.97692491e-07  4.39942059e-03  2.48539146e-05  3.67465462e-08  4.05024658e-05 -1.39375118e-08 -3.04445800e-10
 4.12218274e-07  4.12218274e-07  4.17469215e-03  2.52208506e-05  5.10247548e-08  4.28595101e-05 -6.29387829e-10 -2.99080358e-10
 4.27210905e-07  4.27210905e-07  3.88940005e-03  2.51402260e-05  6.50566519e-08  4.51345329e-05  1.41113573e-08 -2.74637937e-10
 4.42502795e-07  4.42502795e-07  3.53382269e-03  2.45481291e-05  7.77414397e-08  4.72546052e-05  2.98531915e-08 -2.30311601e-10
 4.54605692e-07  4.54605692e-07  3.19881983e-03  2.37020004e-05  8.60880222e-08  4.87639934e-05  4.26092090e-08 -1.82388953e-10
 4.64508310e-07  4.64508310e-07  2.88390690e-03  2.27567915e-05  9.15101127e-08  4.98708557e-05  5.31219626e-08 -1.35788683e-10
 4.73086474e-07  4.73086474e-07  2.57707607e-03  2.17525501e-05  9.50178055e-08  5.07238071e-05  6.22144875e-08 -9.09657374e-11
 4.80959654e-07  4.80959654e-07  2.26396575e-03  2.06792846e-05  9.71671550e-08  5.14097563e-05  7.05051475e-08 -4.70147938e-11
 4.88347374e-07  4.88347374e-07  1.93946931e-03  1.95408961e-05  9.81944957e-08  5.19598848e-05  7.82099746e-08 -4.08151186e-12
 4.95287651e-07  4.95287651e-07  1.60465089e-03  1.83565365e-05  9.82558546e-08  5.23859239e-05  8.53660430e-08  3.70653313e-11
 5.01781174e-07  5.01781174e-07  1.26260988e-03  1.71485469e-05  9.75080415e-08  5.26974792e-05  9.19807456e-08  7.56832874e-11
 5.07847788e-07  5.07847788e-07  9.15920414e-04  1.59336224e-05  9.61061424e-08  5.29059170e-05  9.80865180e-08  1.11359267e-10
 5.13515318e-07  5.13515318e-07  5.66867704e-04  1.47240264e-05  9.41908150e-08  5.30227662e-05  1.03725706e-07  1.43911464e-10
 5.18772587e-07  5.18772587e-07  2.20399870e-04  1.35382075e-05  9.19037213e-08  5.30590340e-05  1.08902086e-07  1.73092235e-10
 5.24695175e-07  5.24695175e-07 -1.96699701e-04  1.21295291e-05  8.87618945e-08  5.30106107e-05  1.14673962e-07  2.04382205e-10
 5.31042174e-07  5.31042174e-07 -6.74874261e-04  1.05346952e-05  8.47666884e-08  5.28464538e-05  1.20793809e-07  2.35586647e-10
 5.35606180e-07  5.35606180e-07 -1.03781831e-03  9.33345979e-06  8.15146952e-08  5.26529586e-05  1.25154250e-07  2.56310236e-10
 5.40210404e-07  5.40210404e-07 -1.41868582e-03  8.07550839e-06  7.79364288e-08  5.23906047e-05  1.29519438e-07  2.75570805e-10
 5.44907521e-07  5.44907521e-07 -1.82024096e-03  6.74440161e-06  7.40032328e-08  5.20507885e-05  1.33936072e-07  2.93360233e-10
 5.49745427e-07  5.49745427e-07 -2.24426051e-03  5.32293789e-06  6.96822753e-08  5.16223772e-05  1.38441248e-07  3.09590092e-10
 5.55118736e-07  5.55118736e-07 -2.72215743e-03  3.68423212e-06  6.46006050e-08  5.10514976e-05  1.43380447e-07  3.25016881e-10
 5.60011767e-07  5.60011767e-07 -3.15806374e-03  2.13737158e-06  5.97484973e-08  5.04440911e-05  1.47802568e-07  3.36640703e-10
 5.65241703e-07  5.65241703e-07 -3.61751206e-03  4.27016582e-07  5.43649096e-08  4.97033110e-05  1.52422905e-07  3.46520874e-10
 5.70211968e-07  5.70211968e-07 -4.04114178e-03 -1.25206821e-06  4.90945595e-08  4.89136158e-05  1.56680625e-07  3.53543412e-10
 5.75576846e-07  5.75576846e-07 -4.47654884e-03 -3.12146127e-06  4.32764918e-08  4.79713736e-05  1.61085232e-07  3.58683886e-10
 5.81028783e-07  5.81028783e-07 -4.88886318e-03 -5.07925092e-06  3.72648243e-08  4.69239254e-05  1.65301827e-07  3.61537663e-10
 5.87197084e-07  5.87197084e-07 -5.31194354e-03 -7.36016565e-06  3.03883157e-08  4.56388711e-05  1.69673390e-07  3.62261542e-10
 5.94189082e-07  5.94189082e-07 -5.73102180e-03 -1.00216516e-05  2.25504394e-08  4.40685234e-05  1.73993705e-07  3.60462797e-10
 6.03817372e-07  6.03817372e-07 -6.20396653e-03 -1.37943739e-05  1.17690639e-08  4.17418380e-05  1.78574520e-07  3.54797023e-10
 6.12543940e-07  6.12543940e-07 -6.53843939e-03 -1.72938499e-05  2.06330789e-09  3.94986106e-05  1.81131989e-07  3.47687052e-10
 6.20133059e-07  6.20133059e-07 -6.76785196e-03 -2.03750664e-05 -6.30144479e-09  3.74645911e-05  1.81975911e-07  3.40806379e-10
 6.27632911e-07  6.27632911e-07 -6.94978191e-03 -2.34306898e-05 -1.44895957e-08  3.53946182e-05  1.81442622e-07  3.33987291e-10
 6.35943665e-07  6.35943665e-07 -7.11175732e-03 -2.67989746e-05 -2.34765237e-08  3.30464138e-05  1.79180767e-07  3.26923550e-10
 6.44127531e-07  6.44127531e-07 -7.24073956e-03 -3.00670907e-05 -3.22509942e-08  3.06894256e-05  1.75195079e-07  3.20762960e-10
 6.53540450e-07  6.53540450e-07 -7.36220646e-03 -3.37238777e-05 -4.22749882e-08  2.79351415e-05  1.68447406e-07  3.14761087e-10
 6.63544786e-07  6.63544786e-07 -7.46855165e-03 -3.74402716e-05 -5.28749279e-08  2.49669379e-05  1.58790390e-07  3.09449110e-10
 6.74747003e-07  6.74747003e-07 -7.56741692e-03 -4.13275837e-05 -6.46961281e-08  2.16032057e-05  1.45080328e-07  3.04127348e-10
 6.86065116e-07  6.86065116e-07 -7.65054481e-03 -4.48930580e-05 -7.65753733e-08  1.81698007e-05  1.28347213e-07  2.98316780e-10
 6.98407431e-07  6.98407431e-07 -7.72531637e-03 -4.82885686e-05 -8.93835594e-08  1.43940511e-05  1.07163181e-07  2.89754140e-10
 7.08892872e-07  7.08892872e-07 -7.77701468e-03 -5.07186150e-05 -1.00046924e-07  1.11657560e-05  8.70745388e-08  2.79236452e-10
 7.17771230e-07  7.17771230e-07 -7.81265018e-03 -5.24195130e-05 -1.08825115e-07  8.42084633e-06  6.87996165e-08  2.67005645e-10
 7.25404571e-07  7.25404571e-07 -7.83737659e-03 -5.36035146e-05 -1.16109206e-07  6.05464267e-06  5.23275199e-08  2.53405831e-10
 7.32108731e-07  7.32108731e-07 -7.85455471e-03 -5.44217339e-05 -1.22242049e-07  3.97315819e-06  3.74000277e-08  2.38695726e-10
 7.37921013e-07  7.37921013e-07 -7.86596968e-03 -5.49584463e-05 -1.27310942e-07  2.16701116e-06  2.41908128e-08  2.23599573e-10
 7.42694267e-07  7.42694267e-07 -7.87289593e-03 -5.52770708e-05 -1.31270674e-07  6.83199366e-07  1.32055895e-08  2.09443190e-10
 7.46996712e-07  7.46996712e-07 -7.87722154e-03 -5.54687245e-05 -1.34660017e-07 -6.54285492e-07  3.23207887e-09  1.95243169e-10
 7.51559742e-07  7.51559742e-07 -7.87979593e-03 -5.55722636e-05 -1.38044202e-07 -2.07241667e-06 -7.38536620e-09  1.78623921e-10
 7.56059082e-07  7.56059082e-07 -7.88027874e-03 -5.55735235e-05 -1.41145697e-07 -3.47002379e-06 -1.78626434e-08  1.60615750e-10
 7.62581681e-07  7.62581681e-07 -7.87729424e-03 -5.53977736e-05 -1.45172489e-07 -5.49397925e-06 -3.29931832e-08  1.31578362e-10
 7.69345938e-07  7.69345938e-07 -7.86951328e-03 -5.49950069e-05 -1.48692463e-07 -7.58919271e-06 -4.85216414e-08  9.77630771e-11
