 time            time            v(n1)           v(n2)           v(n3)           i(L1)           i(L2)           i(L3)
 8.68055556e-04  8.68055556e-04  5.83767272e-12  1.88566992e-14  6.11114480e-17  6.48152428e-15  2.88859225e-17  4.21463946e-19
 8.69584626e-04  8.69584626e-04  5.84799203e-12  1.88899735e-14  6.12196937e-17  6.49296160e-15  2.89368942e-17  4.22207669e-19
 8.72642768e-04  8.72642768e-04  5.86871806e-12  1.89566663e-14  6.14359192e-17  6.51588488e-15  2.90390520e-17  4.23698279e-19
 8.78759051e-04  8.78759051e-04  5.91059139e-12  1.90907634e-14  6.18686041e-17  6.56196690e-15  2.92443931e-17  4.26694709e-19
 8.90991617e-04  8.90991617e-04  5.99609524e-12  1.93620465e-14  6.27362293e-17  6.65512200e-15  2.96592869e-17  4.32750808e-19
 9.15456749e-04  9.15456749e-04  6.17430611e-12  1.99182531e-14  6.45034009e-17  6.84557102e-15  3.05058822e-17  4.45123965e-19
 9.64387013e-04  9.64387013e-04  6.56061600e-12  2.10943877e-14  6.82000841e-17  7.24428640e-15  3.22663009e-17  4.70974383e-19
 1.06224754e-03  1.06224754e-03  7.46114467e-12  2.37649031e-14  7.64557270e-17  8.12360246e-15  3.60700898e-17  5.27626318e-19
 1.16328150e-03  1.16328150e-03  8.58375274e-12  2.70592147e-14  8.64384009e-17  9.16501192e-15  4.04403355e-17  5.94001855e-19
 1.27556241e-03  1.27556241e-03  1.00824574e-11  3.14836613e-14  9.96742434e-17  1.05127662e-14  4.59311983e-17  6.78791739e-19
 1.38807136e-03  1.38807136e-03  1.18730098e-11  3.68447610e-14  1.15703397e-16  1.21019127e-14  5.22578213e-17  7.77506552e-19
 1.50154031e-03  1.50154031e-03  1.39969046e-11  4.33105612e-14  1.35208393e-16  1.39900262e-14  5.96761569e-17  8.93650632e-19
 1.61705624e-03  1.61705624e-03  1.65139956e-11  5.11029033e-14  1.59012806e-16  1.62563770e-14  6.85485259e-17  1.03221934e-18
 1.74032460e-03  1.74032460e-03  1.96262164e-11  6.08958436e-14  1.89351245e-16  1.91206513e-14  7.98182243e-17  1.20696313e-18
 1.86921669e-03  1.86921669e-03  2.33867118e-11  7.29127746e-14  2.27180666e-16  2.26851044e-14  9.40167876e-17  1.42482660e-18
 2.00757964e-03  2.00757964e-03  2.80428555e-11  8.80090135e-14  2.75423052e-16  2.72602998e-14  1.12577717e-16  1.70602876e-18
 2.15348906e-03  2.15348906e-03  3.36986593e-11  1.06595920e-13  3.35690837e-16  3.30527029e-14  1.36615104e-16  2.06517406e-18
 2.30982083e-03  2.30982083e-03  4.06701415e-11  1.29796399e-13  4.12012874e-16  4.05283710e-14  1.68444598e-16  2.53405512e-18
 2.47543049e-03  2.47543049e-03  4.91583516e-11  1.58376501e-13  5.07341658e-16  5.00942966e-14  2.10308163e-16  3.14232556e-18
 2.65266572e-03  2.65266572e-03  5.95900177e-11  1.93884194e-13  6.27258206e-16  6.24882100e-14  2.66106494e-16  3.94253745e-18
 2.84103449e-03  2.84103449e-03  7.23132601e-11  2.37632457e-13  7.76757733e-16  7.84657300e-14  3.40113930e-16  4.99107751e-18
 3.04253777e-03  3.04253777e-03  8.79231415e-11  2.91814659e-13  9.63900626e-16  9.92288784e-14  4.39022999e-16  6.37684959e-18
 3.25717735e-03  3.25717735e-03  1.06984863e-10  3.58562372e-13  1.19669050e-15  1.26131528e-13  5.70718949e-16  8.20319356e-18
 3.48674269e-03  3.48674269e-03  1.30347535e-10  4.41043997e-13  1.48691955e-15  1.61168130e-13  7.46788910e-16  1.06222013e-17
 3.73162975e-03  3.73162975e-03  1.58898206e-10  5.42615922e-13  1.84736955e-15  2.06718812e-13  9.81495813e-16  1.38197163e-17
 3.99352841e-03  3.99352841e-03  1.93868904e-10  6.67919468e-13  2.29563798e-15  2.66132322e-13  1.29499001e-15  1.80584775e-17
 4.27316952e-03  4.27316952e-03  2.36625760e-10  8.22147022e-13  2.85144547e-15  3.43549002e-13  1.71274502e-15  2.36689390e-17
 4.57223229e-03  4.57223229e-03  2.88976762e-10  1.01216182e-12  3.54093586e-15  4.44633913e-13  2.26986250e-15  3.11060440e-17
 4.89174931e-03  4.89174931e-03  3.53002770e-10  1.24590963e-12  4.39454987e-15  5.76545387e-13  3.01144157e-15  4.09524246e-17
 5.23346097e-03  5.23346097e-03  4.31376669e-10  1.53360031e-12  5.45141339e-15  7.48912142e-13  3.99863583e-15  5.39971626e-17
 5.59868746e-03  5.59868746e-03  5.27246995e-10  1.88731044e-12  6.75793663e-15  9.74065274e-13  5.31078660e-15  7.12614620e-17
 5.98929123e-03  5.98929123e-03  6.44583985e-10  2.32228420e-12  8.37281961e-15  1.26841834e-12  7.05435483e-15  9.41137393e-17
 6.40688068e-03  6.40688068e-03  7.88132441e-10  2.85679553e-12  1.03666821e-14  1.65316637e-12  9.36826258e-15  1.24336488e-16
 6.85349511e-03  6.85349511e-03  9.63807377e-10  3.51365557e-12  1.28278444e-14  2.15633983e-12  1.24376264e-14  1.64302327e-16
 7.33104378e-03  7.33104378e-03  1.17874146e-09  4.32043661e-12  1.58632972e-14  2.81432061e-12  1.65048056e-14  2.17113463e-16
 7.84179471e-03  7.84179471e-03  1.44176369e-09  5.31131573e-12  1.96058008e-14  3.67503249e-12  2.18912470e-14  2.86880200e-16
 8.38798106e-03  8.38798106e-03  1.76358004e-09  6.52781476e-12  2.42169358e-14  4.80087520e-12  2.90185531e-14  3.78987429e-16
 8.97215134e-03  8.97215134e-03  2.15738462e-09  8.02117363e-12  2.98965252e-14  6.27384245e-12  3.84441252e-14  5.00548543e-16
 9.59689498e-03  9.59689498e-03  2.63923189e-09  9.85383915e-12  3.68884008e-14  8.20090517e-12  5.08996870e-14  6.60893440e-16
 1.02650948e-02  1.02650948e-02  3.22885381e-09  1.21026568e-11  4.54929981e-14  1.07224108e-11  6.73505010e-14  8.72320571e-16
 1.09797379e-02  1.09797379e-02  3.95031159e-09  1.48614570e-11  5.60776100e-14  1.40216834e-11  8.90641438e-14  1.15096812e-15
 1.17440992e-02  1.17440992e-02  4.83312846e-09  1.82454985e-11  6.90939898e-14  1.83390227e-11  1.17710106e-13  1.51807758e-15
 1.25616136e-02  1.25616136e-02  5.91335316e-09  2.23956759e-11  8.50950818e-14  2.39885503e-11  1.55480825e-13  2.00152742e-15
 1.34360118e-02  1.34360118e-02  7.23517198e-09  2.74848605e-11  1.04760015e-13  3.13817790e-11  2.05260555e-13  2.63797371e-15
 1.43712363e-02  1.43712363e-02  8.85258257e-09  3.37245163e-11  1.28920392e-13  4.10568983e-11  2.70836491e-13  3.47552430e-15
 1.53073128e-02  1.53073128e-02  1.06962591e-08  4.08498588e-11  1.56561635e-13  5.28215083e-11  3.51049348e-13  4.49910467e-15
 1.62314468e-02  1.62314468e-02  1.27510469e-08  4.88035997e-11  1.87466754e-13  6.67449767e-11  4.46474352e-13  5.71587423e-15
 1.71356898e-02  1.71356898e-02  1.50006977e-08  5.75236141e-11  2.21397641e-13  8.28603952e-11  5.57421811e-13  7.12964724e-15
 1.80195976e-02  1.80195976e-02  1.74410041e-08  6.69940811e-11  2.58294665e-13  1.01265504e-10  6.84635495e-13  8.74978310e-15
 1.88862264e-02  1.88862264e-02  2.00771215e-08  7.72354273e-11  2.98239203e-13  1.22124706e-10  8.29317961e-13  1.05914882e-14
 1.97383843e-02  1.97383843e-02  2.29156666e-08  8.82737856e-11  3.41334948e-13  1.45619428e-10  9.92792590e-13  1.26715023e-14
 2.06148599e-02  2.06148599e-02  2.61020109e-08  1.00675605e-10  3.89797928e-13  1.73164121e-10  1.18500228e-12  1.51161679e-14
 2.15288158e-02  2.15288158e-02  2.97257961e-08  1.14791891e-10  4.45008329e-13  2.05873698e-10  1.41388277e-12  1.80261568e-14
 2.24830101e-02  2.24830101e-02  3.38518549e-08  1.30877713e-10  5.07973896e-13  2.44762417e-10  1.68671971e-12  2.14937859e-14
 2.34823845e-02  2.34823845e-02  3.85653446e-08  1.49267896e-10  5.80016714e-13  2.91154829e-10  2.01302593e-12  2.56395965e-14
 2.45257183e-02  2.45257183e-02  4.39331515e-08  1.70226495e-10  6.62183618e-13  3.46330085e-10  2.40204951e-12  3.05806783e-14
 2.56167851e-02  2.56167851e-02  5.00566565e-08  1.94152702e-10  7.56053108e-13  4.12066303e-10  2.86661286e-12  3.64794297e-14
 2.67555091e-02  2.67555091e-02  5.70285240e-08  2.21412229e-10  8.63074513e-13  4.90232262e-10  3.42024793e-12  4.35071473e-14
 2.79455304e-02  2.79455304e-02  6.49766322e-08  2.52509038e-10  9.85242208e-13  5.83300008e-10  4.08083414e-12  5.18901939e-14
 2.91877591e-02  2.91877591e-02  7.40274338e-08  2.87942203e-10  1.12453403e-12  6.93985720e-10  4.86807332e-12  6.18779145e-14
 3.04856463e-02  3.04856463e-02  8.43430293e-08  3.28351050e-10  1.28348197e-12  8.25741457e-10  5.80699983e-12  7.37871496e-14
 3.18407447e-02  3.18407447e-02  9.60919517e-08  3.74400916e-10  1.46472338e-12  9.82469168e-10  6.92597010e-12  8.79766875e-14
 3.32563861e-02  3.32563861e-02  1.09480914e-07  4.26907621e-10  1.67149114e-12  1.16900781e-09  8.26015962e-12  1.04891577e-13
 3.47346249e-02  3.47346249e-02  1.24732080e-07  4.86748527e-10  1.90726399e-12  1.39093001e-09  9.85014161e-12  1.25045052e-13
 3.62787892e-02  3.62787892e-02  1.42110657e-07  5.54970880e-10  2.17619367e-12  1.65504270e-09  1.17455011e-11  1.49064287e-13
 3.78913703e-02  3.78913703e-02  1.61907822e-07  6.32724989e-10  2.48284213e-12  1.96927945e-09  1.40041026e-11  1.77681048e-13
 3.95757893e-02  3.95757893e-02  1.84465277e-07  7.21360789e-10  2.83256290e-12  2.34323889e-09  1.66959982e-11  2.11781124e-13
 4.13349390e-02  4.13349390e-02  2.10163307e-07  8.22381107e-10  3.23131721e-12  2.78819391e-09  1.99035437e-11  2.52405712e-13
 4.31724076e-02  4.31724076e-02  2.39443380e-07  9.37530678e-10  3.68602574e-12  3.31770103e-09  2.37258417e-11  3.00807577e-13
 4.50914730e-02  4.50914730e-02  2.72801045e-07  1.06876844e-09  4.20445969e-12  3.94775858e-09  2.82799474e-11  3.58466174e-13
 4.70959513e-02  4.70959513e-02  3.10807655e-07  1.21835316e-09  4.79557962e-12  4.69753221e-09  3.37061788e-11  4.27154726e-13
 4.91895038e-02  4.91895038e-02  3.54108062e-07  1.38883464e-09  5.46950086e-12  5.58970932e-09  4.01707624e-11  5.08973512e-13
 5.13762270e-02  5.13762270e-02  4.03442536e-07  1.58314020e-09  6.23783580e-12  6.65140328e-09  4.78724716e-11  6.06433636e-13
 5.36601757e-02  5.36601757e-02  4.59649475e-07  1.80458563e-09  7.11373736e-12  7.91477258e-09  5.70472200e-11  7.22514856e-13
 5.60457743e-02  5.60457743e-02  5.23688692e-07  2.05696716e-09  8.11226263e-12  9.41819082e-09  6.79766697e-11  8.60774130e-13
 5.85374903e-02  5.85374903e-02  5.96649628e-07  2.34459410e-09  9.25050150e-12  1.12072291e-08  8.09955018e-11  1.02543711e-12
 6.11401219e-02  6.11401219e-02  6.79777325e-07  2.67239148e-09  1.05479823e-11  1.33362139e-08  9.65028962e-11  1.22154278e-12
 6.38585758e-02  6.38585758e-02  7.74486954e-07  3.04595759e-09  1.20268983e-11  1.58697135e-08  1.14973519e-10  1.45508165e-12
 6.66980697e-02  6.66980697e-02  8.82394037e-07  3.47168339e-09  1.37125785e-11  1.88846563e-08  1.36973146e-10  1.73319238e-12
 6.96639827e-02  6.96639827e-02  1.00533649e-06  3.95683969e-09  1.56338302e-11  2.24725216e-08  1.63174848e-10  2.06436524e-12
 7.27619994e-02  7.27619994e-02  1.14541098e-06  4.50972082e-09  1.78235036e-11  2.67422610e-08  1.94380548e-10  2.45871307e-12
 7.59980107e-02  7.59980107e-02  1.30500417e-06  5.13976796e-09  2.03189758e-11  3.18234804e-08  2.31544519e-10  2.92826631e-12
 7.93782179e-02  7.93782179e-02  1.48683757e-06  5.85774623e-09  2.31628442e-11  3.78705083e-08  2.75803408e-10  3.48734991e-12
 8.29090689e-02  8.29090689e-02  1.69401021e-06  6.67591320e-09  2.64035852e-11  4.50669742e-08  3.28510031e-10  4.15300712e-12
 8.65973355e-02  8.65973355e-02  1.93005500e-06  7.60824093e-09  3.00964207e-11  5.36315126e-08  3.91275454e-10  4.94552690e-12
 8.68055556e-02  8.68055556e-02  1.94398180e-06  7.66325279e-09  3.03143129e-11  5.41472123e-08  3.95055834e-10  4.99325580e-12
 8.70903445e-02  8.70903445e-02  1.96319902e-06  7.73916351e-09  3.06149809e-11  5.48618978e-08  4.00295201e-10  5.05940353e-12
 8.76599225e-02  8.76599225e-02  2.00193532e-06  7.89217904e-09  3.12210433e-11  5.63081872e-08  4.10898523e-10  5.19326911e-12
 8.86777962e-02  8.86777962e-02  2.07236666e-06  8.17040232e-09  3.23230099e-11  5.89609093e-08  4.30348926e-10  5.43881633e-12
 9.07135436e-02  9.07135436e-02  2.21811570e-06  8.74617832e-09  3.46034204e-11  6.45462715e-08  4.71311328e-10  5.95588727e-12
 9.42587918e-02  9.42587918e-02  2.48801655e-06  9.81249478e-09  3.88263173e-11  7.52197026e-08  5.49619592e-10  6.94419705e-12
 9.82205827e-02  9.82205827e-02  2.81463154e-06  1.11029899e-08  4.39363333e-11  8.86693736e-08  6.48343143e-10  8.18985541e-12
 1.02707298e-01  1.02707298e-01  3.21769025e-06  1.26956470e-08  5.02416477e-11  1.06004616e-07  7.75647670e-10  9.79568268e-12
 1.07256827e-01  1.07256827e-01  3.66386850e-06  1.44587932e-08  5.72202618e-11  1.26061177e-07  9.23001548e-10  1.16538399e-11
 1.12119270e-01  1.12119270e-01  4.18429684e-06  1.65154302e-08  6.53581526e-11  1.50508618e-07  1.10268642e-09  1.39189435e-11
 1.17078836e-01  1.17078836e-01  4.76350096e-06  1.88043766e-08  7.44121187e-11  1.78937592e-07  1.31170946e-09  1.65529414e-11
 1.22336186e-01  1.22336186e-01  5.43318794e-06  2.14508836e-08  8.48761403e-11  2.13278000e-07  1.56427543e-09  1.97344135e-11
 1.27747307e-01  1.27747307e-01  6.18493176e-06  2.44215765e-08  9.66163795e-11  2.53548224e-07  1.86053429e-09  2.34647044e-11
 1.33464010e-01  1.33464010e-01  7.05098790e-06  2.78438076e-08  1.10133696e-10  3.02014485e-07  2.21717069e-09  2.79531827e-11
 1.39384021e-01  1.39384021e-01  8.02903436e-06  3.17082443e-08  1.25388089e-10  3.59194826e-07  2.63800597e-09  3.32470147e-11
 1.45615578e-01  1.45615578e-01  9.15168700e-06  3.61435407e-08  1.42883385e-10  4.27765736e-07  3.14274163e-09  3.95928222e-11
 1.52091099e-01  1.52091099e-01  1.04238738e-05  4.11688734e-08  1.62690097e-10  5.08950035e-07  3.74037289e-09  4.71021238e-11
 1.58888977e-01  1.58888977e-01  1.18801908e-05  4.69205127e-08  1.85338800e-10  6.06049983e-07  4.45518960e-09  5.60780726e-11
 1.65966922e-01  1.65966922e-01  1.35336579e-05  5.34493668e-08  2.11021691e-10  7.21240827e-07  5.30316669e-09  6.67185960e-11
 1.73385007e-01  1.73385007e-01  1.54232264e-05  6.09085677e-08  2.40330690e-10  8.58790808e-07  6.31565872e-09  7.94136534e-11
 1.81119576e-01  1.81119576e-01  1.75714545e-05  6.93862951e-08  2.73599045e-10  1.02219878e-06  7.51831656e-09  9.44803293e-11
 1.89218085e-01  1.89218085e-01  2.00238989e-05  7.90612103e-08  3.11511169e-10  1.21714142e-06  8.95276317e-09  1.12434149e-10
 1.97670243e-01  1.97670243e-01  2.28144931e-05  9.00657359e-08  3.54564921e-10  1.44895675e-06  1.06580493e-08  1.33756161e-10
 2.06515287e-01  2.06515287e-01  2.59982449e-05  1.02614942e-07  4.03575234e-10  1.72536231e-06  1.26906212e-08  1.59142062e-10
 2.15752817e-01  2.15752817e-01  2.96230494e-05  1.16895250e-07  4.59236832e-10  2.05427580e-06  1.51082452e-08  1.89300183e-10
 2.25417086e-01  2.25417086e-01  3.37569443e-05  1.33171694e-07  5.22540860e-10  2.44635658e-06  1.79886360e-08  2.25182804e-10
 2.35515297e-01  2.35515297e-01  3.84653101e-05  1.51697874e-07  5.94421022e-10  2.91316443e-06  2.14158449e-08  2.67814598e-10
 2.46079075e-01  2.46079075e-01  4.38337484e-05  1.72805761e-07  6.76099305e-10  3.46958530e-06  2.54979711e-08  3.18510998e-10
 2.57121761e-01  2.57121761e-01  4.99498362e-05  1.96833553e-07  7.68801552e-10  4.13234497e-06  3.03561078e-08  3.78737708e-10
 2.68674104e-01  2.68674104e-01  5.69225390e-05  2.24201567e-07  8.74045573e-10  4.92239299e-06  3.61416408e-08  4.50321630e-10
 2.80754721e-01  2.80754721e-01  6.48678705e-05  2.55355351e-07  9.93414614e-10  5.86380960e-06  4.30279830e-08  5.35343308e-10
 2.93394861e-01  2.93394861e-01  7.39256358e-05  2.90830699e-07  1.12879868e-09  6.98624269e-06  5.12280835e-08  6.36346910e-10
 3.06617991e-01  3.06617991e-01  8.42485125e-05  3.31209971e-07  1.28221620e-09  8.32427654e-06  6.09893641e-08  7.56269013e-10
 3.20457019e-01  3.20457019e-01  9.60168337e-05  3.77178882e-07  1.45601712e-09  9.92004881e-06  7.26122447e-08  8.98655415e-10
 3.34940208e-01  3.34940208e-01  1.09430760e-04  4.29494500e-07  1.65274424e-09  1.18231938e-05  8.64489455e-08  1.06763155e-09
 3.50103186e-01  3.50103186e-01  1.24723762e-04  4.89036170e-07  1.87530447e-09  1.40938163e-05  1.02924103e-07  1.26813561e-09
 3.65979271e-01  3.65979271e-01  1.42157700e-04  5.56784115e-07  2.12686170e-09  1.68031869e-05  1.22538453e-07  1.50593801e-09
 3.82607897e-01  3.82607897e-01  1.62035659e-04  6.33866635e-07  2.41098007e-09  2.00373265e-05  1.45892997e-07  1.78790228e-09
 4.00028011e-01  4.00028011e-01  1.84699894e-04  7.21548657e-07  2.73153984e-09  2.38987315e-05  1.73699076e-07  2.12206347e-09
 4.18284062e-01  4.18284062e-01  2.10544700e-04  8.21277188e-07  3.09285313e-09  2.85109414e-05  2.06808127e-07  2.51793025e-09
 4.37421571e-01  4.37421571e-01  2.40017371e-04  9.34679492e-07  3.49959233e-09  3.40217259e-05  2.46230351e-07  2.98663426e-09
 4.57491469e-01  4.57491469e-01  2.73631841e-04  1.06360867e-06  3.95687435e-09  4.06091996e-05  2.93172917e-07  3.54128847e-09
 4.78547246e-01  4.78547246e-01  3.11973019e-04  1.21015140e-06  4.47018701e-09  4.84871468e-05  3.49070469e-07  4.19722052e-09
 5.00648225e-01  5.00648225e-01  3.55712110e-04  1.37667541e-06  5.04543065e-09  5.79135590e-05  4.15635840e-07  4.97240200e-09
 5.23857894e-01  5.23857894e-01  4.05614939e-04  1.56584689e-06  5.68882064e-09  6.91991756e-05  4.94907125e-07  5.88777679e-09
 5.48246578e-01  5.48246578e-01  4.62560115e-04  1.78068132e-06  6.40686420e-09  8.27198390e-05  5.89316784e-07  6.96777071e-09
 5.73890745e-01  5.73890745e-01  5.27552390e-04  2.02457073e-06  7.20620400e-09  9.89300161e-05  7.01762250e-07  8.24071676e-09
 6.00875459e-01  6.00875459e-01  6.01745255e-04  2.30133892e-06  8.09349011e-09  1.18381276e-04  8.35702071e-07  9.73943875e-09
 6.29294644e-01  6.29294644e-01  6.86461009e-04  2.61527830e-06  9.07510721e-09  1.41743783e-04  9.95260501e-07  1.15017504e-08
 6.59253733e-01  6.59253733e-01  7.83220188e-04  2.97120983e-06  1.01568713e-08  1.69834874e-04  1.18536374e-06  1.35710684e-08
 6.90871078e-01  6.90871078e-01  8.93771156e-04  3.37452812e-06  1.13435440e-08  2.03653840e-04  1.41189472e-06  1.59969043e-08
 7.24281404e-01  7.24281404e-01  1.02013028e-03  3.83126479e-06  1.26382310e-08  2.44427869e-04  1.68189009e-06  1.88353759e-08
 7.59638938e-01  7.59638938e-01  1.16462610e-03  4.34813856e-06  1.40415166e-08  2.93670201e-04  2.00377172e-06  2.21494839e-08
 7.97122749e-01  7.97122749e-01  1.32995747e-03  4.93261783e-06  1.55503424e-08  3.53257764e-04  2.38763958e-06  2.60092007e-08
 8.36943029e-01  8.36943029e-01  1.51926250e-03  5.59296881e-06  1.71564582e-08  4.25533543e-04  2.84562774e-06  3.04910404e-08
 8.79350707e-01  8.79350707e-01  1.73620994e-03  6.33830816e-06  1.88443594e-08  5.13447215e-04  3.39236068e-06  3.56769788e-08
 9.24650554e-01  9.24650554e-01  1.98511662e-03  7.17863646e-06  2.05884454e-08  6.20750332e-04  4.04553359e-06  4.16521719e-08
 9.71388757e-01  9.71388757e-01  2.25997872e-03  8.08846609e-06  2.22857600e-08  7.46980423e-04  4.79568430e-06  4.82359525e-08
 1.01898332e+00  1.01898332e+00  2.55794964e-03  9.05349584e-06  2.38658279e-08  8.92782869e-04  5.63963035e-06  5.53058427e-08
 1.06769549e+00  1.06769549e+00  2.88075642e-03  1.00740042e-05  2.52836324e-08  1.06112980e-03  6.58636005e-06  6.28306649e-08
 1.11742819e+00  1.11742819e+00  3.22758985e-03  1.11413899e-05  2.64774679e-08  1.25403988e-03  7.63738648e-06  7.06993151e-08
 1.16870215e+00  1.16870215e+00  3.60169840e-03  1.22584811e-05  2.73934103e-08  1.47625473e-03  8.80638198e-06  7.88670419e-08
 1.22164678e+00  1.22164678e+00  4.00341108e-03  1.34175424e-05  2.79575025e-08  1.73160233e-03  1.00982096e-05  8.71889440e-08
 1.27694759e+00  1.27694759e+00  4.43692275e-03  1.46197489e-05  2.80875169e-08  2.02739415e-03  1.15301582e-05  9.55532014e-08
 1.33515181e+00  1.33515181e+00  4.90494946e-03  1.58583096e-05  2.76755128e-08  2.37170744e-03  1.31150229e-05  1.03745354e-07
 1.39270955e+00  1.39270955e+00  5.37560348e-03  1.70379148e-05  2.66834013e-08  2.74610364e-03  1.47443234e-05  1.10972605e-07
 1.45204196e+00  1.45204196e+00  5.86415891e-03  1.81866063e-05  2.50314293e-08  3.16769204e-03  1.64677555e-05  1.17235801e-07
 1.51111546e+00  1.51111546e+00  6.34885257e-03  1.92419235e-05  2.27457394e-08  3.62338193e-03  1.82042785e-05  1.22005916e-07
 1.57204900e+00  1.57204900e+00  6.84108811e-03  2.02159568e-05  1.97268387e-08  4.13054841e-03  1.99885791e-05  1.25124178e-07
 1.63358495e+00  1.63358495e+00  7.32377519e-03  2.10590050e-05  1.60221668e-08  4.68004580e-03  2.17511131e-05  1.26167091e-07
