 time            time            v(n1)           v(n2)           v(n3)           i(L1)           i(L2)           i(L3)
 8.68055556e-04  8.68055556e-04  5.85659054e-12  4.84226968e-20 -3.01493823e-22  6.50270878e-15 -5.57829467e-17  3.47320884e-19
 8.69580476e-04  8.69580476e-04  5.86691504e-12  4.85079111e-20 -3.02024392e-22  6.51415228e-15 -5.58811139e-17  3.47932101e-19
 8.72630318e-04  8.72630318e-04  5.88765110e-12  4.86786997e-20 -3.03087771e-22  6.53708782e-15 -5.60778645e-17  3.49157128e-19
 8.78730001e-04  8.78730001e-04  5.92954293e-12  4.90220123e-20 -3.05225336e-22  6.58319384e-15 -5.64733811e-17  3.51619730e-19
 8.90929367e-04  8.90929367e-04  6.01507724e-12  4.97158783e-20 -3.09545548e-22  6.67639463e-15 -5.72728964e-17  3.56597745e-19
 9.15328098e-04  9.15328098e-04  6.19332291e-12  5.11333298e-20 -3.18371014e-22  6.86692486e-15 -5.89073442e-17  3.66774294e-19
 9.64125562e-04  9.64125562e-04  6.57959839e-12  5.40921795e-20 -3.36793675e-22  7.26575425e-15 -6.23286696e-17  3.88076467e-19
 1.06172049e-03  1.06172049e-03  7.47963747e-12  6.05507254e-20 -3.77006466e-22  8.14504106e-15 -6.98715636e-17  4.35040754e-19
 1.16238075e-03  1.16238075e-03  8.59991579e-12  6.80542942e-20 -4.23725881e-22  9.18483934e-15 -7.87914008e-17  4.90578341e-19
 1.27431999e-03  1.27431999e-03  1.00958131e-11  7.75566912e-20 -4.82890599e-22  1.05306093e-14 -9.03360071e-17  5.62458603e-19
 1.38649739e-03  1.38649739e-03  1.18826298e-11  8.85037201e-20 -5.51050044e-22  1.21167268e-14 -1.03942435e-16  6.47176489e-19
 1.49967580e-03  1.49967580e-03  1.40024710e-11  1.01245171e-19 -6.30382124e-22  1.40011176e-14 -1.20107601e-16  7.47825977e-19
 1.61508708e-03  1.61508708e-03  1.65188829e-11  1.16305608e-19 -7.24152959e-22  1.62662230e-14 -1.39538727e-16  8.68810464e-19
 1.73812889e-03  1.73812889e-03  1.96274519e-11  1.35086857e-19 -8.41090756e-22  1.91257775e-14 -1.64069326e-16  1.02154602e-18
 1.86690683e-03  1.86690683e-03  2.33872576e-11  1.58320632e-19 -9.85751430e-22  2.26873048e-14 -1.94621789e-16  1.21177574e-18
 2.00503841e-03  2.00503841e-03  2.80390640e-11  1.88101351e-19 -1.17117550e-21  2.72546769e-14 -2.33802865e-16  1.45573008e-18
 2.15078741e-03  2.15078741e-03  3.36930011e-11  2.26057197e-19 -1.40750058e-21  3.30399742e-14 -2.83431867e-16  1.76473660e-18
 2.30686748e-03  2.30686748e-03  4.06588049e-11  2.75656671e-19 -1.71632267e-21  4.05020983e-14 -3.47445443e-16  2.16330603e-18
 2.47226997e-03  2.47226997e-03  4.91433099e-11  3.40406729e-19 -2.11947717e-21  5.00535057e-14 -4.29381791e-16  2.67346809e-18
 2.64922662e-03  2.64922662e-03  5.95672564e-11  4.26482425e-19 -2.65541186e-21  6.24239739e-14 -5.35501206e-16  3.33420095e-18
 2.83734142e-03  2.83734142e-03  7.22840903e-11  5.41064999e-19 -3.36883923e-21  7.83741073e-14 -6.72328382e-16  4.18612876e-18
 3.03853241e-03  3.03853241e-03  8.78831452e-11  6.95577292e-19 -4.33088107e-21  9.90967084e-14 -8.50095525e-16  5.29295932e-18
 3.25286888e-03  3.25286888e-03  1.06934434e-10  9.04367352e-19 -5.63087206e-21  1.25949660e-13 -1.08045087e-15  6.72721642e-18
 3.48208106e-03  3.48208106e-03  1.30281553e-10  1.18904532e-18 -7.40336226e-21  1.60916206e-13 -1.38040709e-15  8.59482345e-18
 3.72661214e-03  3.72661214e-03  1.58815804e-10  1.57797321e-18 -9.82493973e-21  2.06378654e-13 -1.77039998e-15  1.10230156e-17
 3.98810930e-03  3.98810930e-03  1.93763793e-10  2.11259089e-18 -1.31536174e-20  2.65671283e-13 -2.27903135e-15  1.41898699e-17
 4.26733632e-03  4.26733632e-03  2.36495287e-10  2.84869480e-18 -1.77367933e-20  3.42933302e-13 -2.94180751e-15  1.83164493e-17
 4.56594130e-03  4.56594130e-03  2.88812804e-10  3.86640404e-18 -2.40733003e-20  4.43809951e-13 -3.80715333e-15  2.37042460e-17
 4.88497949e-03  4.88497949e-03  3.52800084e-10  5.27524465e-18 -3.28450593e-20  5.75452476e-13 -4.93641164e-15  3.07351759e-17
 5.22616832e-03  5.22616832e-03  4.31124295e-10  7.23089453e-18 -4.50213319e-20  7.47460876e-13 -6.41192991e-15  3.99219241e-17
 5.59084315e-03  5.59084315e-03  5.26935888e-10  9.94812646e-18 -6.19392996e-20  9.72148649e-13 -8.33933058e-15  5.19220754e-17
 5.98084926e-03  5.98084926e-03  6.44198866e-10  1.37303737e-17 -8.54881334e-20  1.26588575e-12 -1.08590302e-14  6.76098272e-17
 6.39780473e-03  6.39780473e-03  7.87658663e-10  1.89985892e-17 -1.18288659e-19  1.64983126e-12 -1.41525232e-14  8.81151027e-17
 6.84373557e-03  6.84373557e-03  9.63223096e-10  2.63453461e-17 -1.64030164e-19  2.15194682e-12 -1.84596507e-14  1.14931053e-16
 7.32055675e-03  7.32055675e-03  1.17802370e-09  3.65955359e-17 -2.27848274e-19  2.80854661e-12 -2.40918942e-14  1.49996802e-16
 7.83052562e-03  7.83052562e-03  1.44088071e-09  5.09078120e-17 -3.16956474e-19  3.66744272e-12 -3.14593516e-14  1.95865370e-16
 8.37587800e-03  8.37587800e-03  1.76249647e-09  7.08984867e-17 -4.41417402e-19  4.79091236e-12 -4.10961846e-14  2.55862058e-16
 8.95915343e-03  8.95915343e-03  2.15605382e-09  9.88348388e-17 -6.15346211e-19  6.26076456e-12 -5.37040710e-14  3.34354914e-16
 9.58294164e-03  9.58294164e-03  2.63759997e-09  1.37883852e-16 -8.58458956e-19  8.18375336e-12 -7.01986259e-14  4.37043650e-16
 1.02501175e-02  1.02501175e-02  3.22685175e-09  1.92484424e-16 -1.19838956e-18  1.06999168e-11 -9.17809145e-14  5.71404721e-16
 1.09636665e-02  1.09636665e-02  3.94785785e-09  2.68841972e-16 -1.67376850e-18  1.39922002e-11 -1.20019969e-13  7.47204850e-16
 1.17268561e-02  1.17268561e-02  4.83012041e-09  3.75649872e-16 -2.33871345e-18  1.83003803e-11 -1.56972195e-13  9.77244097e-16
 1.25431179e-02  1.25431179e-02  5.90966787e-09  5.25067378e-16 -3.26891602e-18  2.39379220e-11 -2.05325895e-13  1.27825520e-15
 1.34161752e-02  1.34161752e-02  7.23065640e-09  7.34123803e-16 -4.57038139e-18  3.13154502e-11 -2.68602534e-13  1.67215586e-15
 1.43499659e-02  1.43499659e-02  8.84705183e-09  1.02664546e-15 -6.39142106e-18  4.09700206e-11 -3.51407682e-13  2.18761005e-15
 1.52848765e-02  1.52848765e-02  1.06901372e-08  1.40605049e-15 -8.75329271e-18  5.27133707e-11 -4.52125862e-13  2.81455493e-15
 1.62078069e-02  1.62078069e-02  1.27442102e-08  1.88264482e-15 -1.17201302e-17  6.66115017e-11 -5.71322403e-13  3.55650319e-15
 1.71109295e-02  1.71109295e-02  1.49932803e-08  2.46557528e-15 -1.53488483e-17  8.26992453e-11 -7.09295298e-13  4.41530326e-15
 1.79937224e-02  1.79937224e-02  1.74329637e-08  3.16618596e-15 -1.97100360e-17  1.01073020e-10 -8.66870706e-13  5.39609079e-15
 1.88592549e-02  1.88592549e-02  2.00684532e-08  3.99888847e-15 -2.48933724e-17  1.21897273e-10 -1.04545816e-12  6.50763189e-15
 1.97103249e-02  1.97103249e-02  2.29063407e-08  4.97957367e-15 -3.09977383e-17  1.45352987e-10 -1.24660886e-12  7.75957355e-15
 2.05854495e-02  2.05854495e-02  2.60911154e-08  6.17965515e-15 -3.84676029e-17  1.72844804e-10 -1.48236745e-12  9.22686880e-15
 2.14981469e-02  2.14981469e-02  2.97137145e-08  7.66754431e-15 -4.77287123e-17  2.05496993e-10 -1.76237324e-12  1.09694923e-14
 2.24508736e-02  2.24508736e-02  3.38377574e-08  9.51393891e-15 -5.92210048e-17  2.44311205e-10 -2.09521324e-12  1.30408618e-14
 2.34488408e-02  2.34488408e-02  3.85495548e-08  1.18139673e-14 -7.35364305e-17  2.90620719e-10 -2.49231726e-12  1.55120781e-14
 2.44905998e-02  2.44905998e-02  4.39148915e-08  1.46699203e-14 -9.13114537e-17  3.45691798e-10 -2.96453931e-12  1.84506470e-14
 2.55801106e-02  2.55801106e-02  5.00360877e-08  1.82232438e-14 -1.13426152e-16  4.11309346e-10 -3.52717921e-12  2.19517265e-14
 2.67171361e-02  2.67171361e-02  5.70048729e-08  2.26350826e-14 -1.40883087e-16  4.89329111e-10 -4.19614234e-12  2.61142247e-14
 2.79054448e-02  2.79054448e-02  6.49498826e-08  2.81208024e-14 -1.75022113e-16  5.82227641e-10 -4.99265471e-12  3.10701330e-14
 2.91458336e-02  2.91458336e-02  7.39967798e-08  3.49335882e-14 -2.17418239e-16  6.92707502e-10 -5.93987719e-12  3.69634518e-14
 3.04418415e-02  3.04418415e-02  8.43082660e-08  4.34027482e-14 -2.70119918e-16  8.24222536e-10 -7.06740808e-12  4.39781953e-14
 3.17949417e-02  3.17949417e-02  9.60521981e-08  5.39231865e-14 -3.35583425e-16  9.80659783e-10 -8.40855476e-12  5.23214031e-14
 3.32085251e-02  3.32085251e-02  1.09435754e-07  6.69999324e-14 -4.16949802e-16  1.16685659e-09 -1.00047655e-11  6.22506964e-14
 3.46845900e-02  3.46845900e-02  1.24680506e-07  8.32465269e-14 -5.18034615e-16  1.38836840e-09 -1.19036367e-11  7.40618580e-14
 3.62265037e-02  3.62265037e-02  1.42052005e-07  1.03439415e-13 -6.43666113e-16  1.65199614e-09 -1.41634314e-11  8.81169145e-14
 3.78367173e-02  3.78367173e-02  1.61840896e-07  1.28529753e-13 -7.99758352e-16  1.96565254e-09 -1.68519298e-11  1.04836950e-13
 3.95186772e-02  3.95186772e-02  1.84389114e-07  1.59713302e-13 -9.93745510e-16  2.33892443e-09 -2.00512453e-11  1.24732014e-13
 4.12752465e-02  4.12752465e-02  2.10076446e-07  1.98462652e-13 -1.23478174e-15  2.78305833e-09 -2.38576956e-11  1.48400261e-13
 4.31100295e-02  4.31100295e-02  2.39344485e-07  2.46621344e-13 -1.53432576e-15  3.31159105e-09 -2.83872000e-11  1.76561437e-13
 4.50262814e-02  4.50262814e-02  2.72688298e-07  3.06467349e-13 -1.90653455e-15  3.94048638e-09 -3.37764431e-11  2.10064019e-13
 4.70278275e-02  4.70278275e-02  3.10679251e-07  3.80844905e-13 -2.36908174e-15  4.68887938e-09 -4.01892403e-11  2.49924665e-13
 4.91183116e-02  4.91183116e-02  3.53961702e-07  4.73276005e-13 -2.94384882e-15  5.57941107e-09 -4.78193933e-11  2.97345798e-13
 5.13018340e-02  5.13018340e-02  4.03275819e-07  5.88150788e-13 -3.65810630e-15  6.63914907e-09 -5.68985581e-11  3.53764306e-13
 5.35824352e-02  5.35824352e-02  4.59459467e-07  7.30912909e-13 -4.54566240e-15  7.90018844e-09 -6.77013704e-11  4.20883123e-13
 5.59645402e-02  5.59645402e-02  5.23472231e-07  9.08340697e-13 -5.64860593e-15  9.40083579e-09 -8.05555587e-11  5.00733718e-13
 5.84526039e-02  5.84526039e-02  5.96402944e-07  1.12884640e-12 -7.01915962e-15  1.11865744e-08 -9.58501728e-11  5.95726769e-13
 6.10514222e-02  6.10514222e-02  6.79496272e-07  1.40289788e-12 -8.72229171e-15  1.33116339e-08 -1.14048978e-10  7.08734788e-13
 6.37658906e-02  6.37658906e-02  7.74166671e-07  1.74349354e-12 -1.08386551e-14  1.58404600e-08 -1.35702980e-10  8.43169133e-13
 6.66012225e-02  6.66012225e-02  8.82029109e-07  2.16680144e-12 -1.34685418e-14  1.88498421e-08 -1.61468555e-10  1.00309165e-12
 6.95627860e-02  6.95627860e-02  1.00492063e-06  2.69290558e-12 -1.67364958e-14  2.24310872e-08 -1.92125967e-10  1.19332832e-12
 7.26562597e-02  7.26562597e-02  1.14493713e-06  3.34678122e-12 -2.07973418e-14  2.66929486e-08 -2.28604293e-10  1.41962239e-12
 7.58875237e-02  7.58875237e-02  1.30446419e-06  4.15946024e-12 -2.58433800e-14  3.17647896e-08 -2.72008335e-10  1.68879918e-12
 7.92627717e-02  7.92627717e-02  1.48622226e-06  5.16952655e-12 -3.21136157e-14  3.78006556e-08 -3.23653242e-10  2.00897821e-12
 8.27884407e-02  8.27884407e-02  1.69330902e-06  6.42492902e-12 -3.99049377e-14  4.49838340e-08 -3.85103234e-10  2.38980977e-12
 8.64712934e-02  8.64712934e-02  1.92925596e-06  7.98528110e-12 -4.95862883e-14  5.35325567e-08 -4.58220016e-10  2.84277049e-12
 8.68055556e-02  8.68055556e-02  1.95167041e-06  8.13974889e-12 -5.05445826e-14  5.43620414e-08 -4.65313856e-10  2.88670892e-12
 8.71154030e-02  8.71154030e-02  1.97267357e-06  8.28599560e-12 -5.14518452e-14  5.51433906e-08 -4.71995865e-10  2.92809449e-12
 8.77350979e-02  8.77350979e-02  2.01503884e-06  8.58352190e-12 -5.32975406e-14  5.67262212e-08 -4.85531752e-10  3.01192664e-12
 8.88875898e-02  8.88875898e-02  2.09536477e-06  9.15873182e-12 -5.68656053e-14  5.97567442e-08 -5.11446550e-10  3.17241005e-12
 9.10088639e-02  9.10088639e-02  2.24870367e-06  1.02982159e-11 -6.39329908e-14  6.56500337e-08 -5.61836611e-10  3.48440349e-12
 9.46279308e-02  9.46279308e-02  2.52731397e-06  1.25068629e-11 -7.76283432e-14  7.67085908e-08 -6.56374583e-10  4.06953858e-12
 9.85915776e-02  9.85915776e-02  2.85790374e-06  1.53498245e-11 -9.52513058e-14  9.03750918e-08 -7.73178907e-10  4.79215179e-12
 1.03115705e-01  1.03115705e-01  3.26910235e-06  1.92075219e-11 -1.19155554e-13  1.08130038e-07 -9.24883401e-10  5.73016786e-12
 1.07664545e-01  1.07664545e-01  3.72046002e-06  2.38321554e-11 -1.47800501e-13  1.28499027e-07 -1.09886956e-09  6.80531576e-12
 1.12558402e-01  1.12558402e-01  4.25038417e-06  2.97603674e-11 -1.84503630e-13  1.53489768e-07 -1.31226237e-09  8.12312566e-12
 1.17525123e-01  1.17525123e-01  4.83721559e-06  3.69253784e-11 -2.28842998e-13  1.82405464e-07 -1.55908135e-09  9.64629388e-12
 1.22812187e-01  1.22812187e-01  5.51855900e-06  4.60028082e-11 -2.84987983e-13  2.17479775e-07 -1.85835308e-09  1.14917559e-11
 1.28242931e-01  1.28242931e-01  6.28189427e-06  5.70987289e-11 -3.53579093e-13  2.58531657e-07 -2.20848168e-09  1.36490459e-11
 1.33989828e-01  1.33989828e-01  7.16279744e-06  7.10694596e-11 -4.39888565e-13  3.08024012e-07 -2.63040679e-09  1.62463693e-11
 1.39932646e-01  1.39932646e-01  8.15624549e-06  8.82597002e-11 -5.46017331e-13  3.66336346e-07 -3.12727814e-09  1.93020630e-11
 1.46193429e-01  1.46193429e-01  9.29755725e-06  1.09807162e-10 -6.78950532e-13  4.36326075e-07 -3.72333272e-09  2.29638159e-11
 1.52692813e-01  1.52692813e-01  1.05896120e-05  1.36422792e-10 -8.43021876e-13  5.19109161e-07 -4.42793164e-09  2.72873695e-11
 1.59519779e-01  1.59519779e-01  1.20695438e-05  1.69686631e-10 -1.04790046e-12  6.18180012e-07 -5.27063256e-09  3.24518050e-11
 1.66624356e-01  1.66624356e-01  1.37489556e-05  2.10874891e-10 -1.30135084e-12  7.35648731e-07 -6.26914574e-09  3.85626936e-11
 1.74073387e-01  1.74073387e-01  1.56689449e-05  2.62257150e-10 -1.61720878e-12  8.75975585e-07 -7.46107626e-09  4.58463341e-11
 1.81837818e-01  1.81837818e-01  1.78510750e-05  3.25981663e-10 -2.00850435e-12  1.04263101e-06 -8.87550333e-09  5.44754452e-11
 1.89969720e-01  1.89969720e-01  2.03428609e-05  4.05389507e-10 -2.49551502e-12  1.24149967e-06 -1.05618554e-08  6.47451247e-11
 1.98226499e-01  1.98226499e-01  2.30979851e-05  5.01073762e-10 -3.08159335e-12  1.47113804e-06 -1.25073112e-08  7.65700128e-11
 2.06255759e-01  2.06255759e-01  2.60033558e-05  6.10548611e-10 -3.75125526e-12  1.72349074e-06 -1.46431570e-08  8.95265433e-11
 2.14093937e-01  2.14093937e-01  2.90628638e-05  7.34962758e-10 -4.51128838e-12  1.99968460e-06 -1.69785406e-08  1.03665302e-10
 2.21681239e-01  2.21681239e-01  3.22420238e-05  8.73801777e-10 -5.35830761e-12  2.29724310e-06 -1.94921480e-08  1.18852547e-10
 2.29061586e-01  2.29061586e-01  3.55466646e-05  1.02809988e-09 -6.29837723e-12  2.61721342e-06 -2.21924686e-08  1.35135073e-10
 2.36744793e-01  2.36744793e-01  3.92164696e-05  1.21102835e-09 -7.41131548e-12  2.98452234e-06 -2.52891701e-08  1.53768368e-10
 2.44554094e-01  2.44554094e-01  4.31939298e-05  1.42263770e-09 -8.69682943e-12  3.39600519e-06 -2.87545852e-08  1.74573520e-10
 2.52741786e-01  2.52741786e-01  4.76402986e-05  1.67513918e-09 -1.02283148e-11  3.87148918e-06 -3.27544379e-08  1.98529634e-10
 2.61132455e-01  2.61132455e-01  5.24991446e-05  1.96971335e-09 -1.20119356e-11  4.40864501e-06 -3.72675837e-08  2.25490530e-10
 2.69886312e-01  2.69886312e-01  5.79043670e-05  2.31959801e-09 -1.41265923e-11  5.02645285e-06 -4.24516164e-08  2.56373992e-10
 2.78882965e-01  2.78882965e-01  6.38278769e-05  2.72903164e-09 -1.65963307e-11  5.72650509e-06 -4.83176165e-08  2.91217274e-10
 2.88237618e-01  2.88237618e-01  7.03950215e-05  3.21376311e-09 -1.95141770e-11  6.52904872e-06 -5.50324778e-08  3.30976887e-10
 2.97873592e-01  2.97873592e-01  7.76074380e-05  3.78229944e-09 -2.29288613e-11  7.44053266e-06 -6.26467935e-08  3.75910031e-10
 3.07875264e-01  3.07875264e-01  8.55884415e-05  4.45421603e-09 -2.69548393e-11  8.48365326e-06 -7.13460756e-08  4.27060000e-10
 3.18195276e-01  3.18195276e-01  9.43673732e-05  5.24364723e-09 -3.16728814e-11  9.67042281e-06 -8.12255202e-08  4.84923900e-10
 3.28896509e-01  3.28896509e-01  1.04071010e-04  6.17573090e-09 -3.72282918e-11  1.10273164e-05 -9.24994603e-08  5.50680958e-10
 3.39951746e-01  3.39951746e-01  1.14756109e-04  7.27217183e-09 -4.37442268e-11  1.25730000e-05 -1.05315592e-07  6.25099941e-10
 3.51409527e-01  3.51409527e-01  1.26558799e-04  8.56610855e-09 -5.14098041e-11  1.43394428e-05 -1.19929982e-07  7.09555011e-10
 3.63256957e-01  3.63256957e-01  1.39564645e-04  1.00895996e-08 -6.04050984e-11  1.63535593e-05 -1.36554314e-07  8.05132148e-10
 3.75520249e-01  3.75520249e-01  1.53909514e-04  1.18851408e-08 -7.09686827e-11  1.86524304e-05 -1.55481329e-07  9.13348352e-10
 3.87331596e-01  3.87331596e-01  1.68596621e-04  1.38446463e-08 -8.24545782e-11  2.10852404e-05 -1.75459541e-07  1.02692708e-09
 3.98878553e-01  3.98878553e-01  1.83801732e-04  1.59986037e-08 -9.50339448e-11  2.36834900e-05 -1.96741504e-07  1.14722961e-09
 4.09994800e-01  4.09994800e-01  1.99248981e-04  1.83139406e-08 -1.08506270e-10  2.64018195e-05 -2.18949958e-07  1.27205426e-09
 4.21241903e-01  4.21241903e-01  2.15704051e-04  2.09180005e-08 -1.23602016e-10  2.93806781e-05 -2.43223419e-07  1.40769125e-09
 4.32752710e-01  4.32752710e-01  2.33423478e-04  2.38774495e-08 -1.40690675e-10  3.26800403e-05 -2.70034999e-07  1.55659273e-09
 4.44578721e-01  4.44578721e-01  2.52572712e-04  2.72526920e-08 -1.60099463e-10  3.63476230e-05 -2.99752832e-07  1.72056252e-09
 4.56759332e-01  4.56759332e-01  2.73317045e-04  3.11118516e-08 -1.82193476e-10  4.04348682e-05 -3.32769979e-07  1.90147874e-09
 4.69280046e-01  4.69280046e-01  2.95741524e-04  3.55153600e-08 -2.07286608e-10  4.49806802e-05 -3.69372797e-07  2.10057035e-09
 4.82165266e-01  4.82165266e-01  3.20006416e-04  4.05454055e-08 -2.35808702e-10  5.00421613e-05 -4.09988428e-07  2.31976444e-09
 4.95407755e-01  4.95407755e-01  3.46222670e-04  4.62827392e-08 -2.68171436e-10  5.56698758e-05 -4.54984412e-07  2.56058275e-09
 5.09030824e-01  5.09030824e-01  3.74569314e-04  5.28323204e-08 -3.04911359e-10  6.19328157e-05 -5.04867624e-07  2.82519969e-09
 5.23035527e-01  5.23035527e-01  4.05191275e-04  6.03027542e-08 -3.46570976e-10  6.88971805e-05 -5.60112829e-07  3.11550512e-09
 5.37443331e-01  5.37443331e-01  4.38288328e-04  6.88285229e-08 -3.93820030e-10  7.66466174e-05 -6.21321968e-07  3.43392831e-09
 5.52260242e-01  5.52260242e-01  4.74038429e-04  7.85534647e-08 -4.47359187e-10  8.52655945e-05 -6.89089879e-07  3.78270671e-09
 5.67506187e-01  5.67506187e-01  5.12665425e-04  8.96504061e-08 -5.08023891e-10  9.48560011e-05 -7.64132749e-07  4.16452579e-09
 5.83190747e-01  5.83190747e-01  5.54382046e-04  1.02308410e-07 -5.76708153e-10  1.05524380e-04 -8.47184462e-07  4.58195140e-09
 5.99333249e-01  5.99333249e-01  5.99441258e-04  1.16750439e-07 -6.54453935e-10  1.17395650e-04 -9.39100266e-07  5.03791872e-09
 6.15946290e-01  6.15946290e-01  6.48093897e-04  1.33224045e-07 -7.42391951e-10  1.30603490e-04 -1.04077737e-06  5.53528712e-09
 6.33049446e-01  6.33049446e-01  7.00627597e-04  1.52017711e-07 -8.41819220e-10  1.45301862e-04 -1.15323897e-06  6.07720485e-09
 6.50658073e-01  6.50658073e-01  7.57335413e-04  1.73454827e-07 -9.54154334e-10  1.61658026e-04 -1.27757424e-06  6.66675341e-09
 6.68792680e-01  6.68792680e-01  8.18545426e-04  1.97909383e-07 -1.08100536e-09  1.79862475e-04 -1.41500698e-06  7.30720787e-09
 6.87471334e-01  6.87471334e-01  8.84597642e-04  2.25803236e-07 -1.22413730e-09  2.00124226e-04 -1.56685114e-06  8.00174259e-09
 7.06716088e-01  7.06716088e-01  9.55866593e-04  2.57621877e-07 -1.38553189e-09  2.22679695e-04 -1.73456750e-06  8.75359999e-09
 7.26547848e-01  7.26547848e-01  1.03274447e-03  2.93915158e-07 -1.56736488e-09  2.47790028e-04 -1.91973148e-06  9.56583173e-09
 7.46990811e-01  7.46990811e-01  1.11565843e-03  3.35313928e-07 -1.77205843e-09  2.75749406e-04 -2.12408040e-06  1.04413818e-08
 7.68069025e-01  7.68069025e-01  1.20505843e-03  3.82534583e-07 -2.00226544e-09  3.06884315e-04 -2.34949087e-06  1.13828380e-08
 7.89809488e-01  7.89809488e-01  1.30143047e-03  4.36397487e-07 -2.26091411e-09  3.41561738e-04 -2.59801823e-06  1.23924278e-08
 8.12239875e-01  8.12239875e-01  1.40528784e-03  4.97835954e-07 -2.55119551e-09  3.80190381e-04 -2.87188100e-06  1.34717535e-08
