 time            time            v(n1)           v(n2)           v(n3)           i(L1)           i(L2)           i(L3)
 8.68055556e-04  8.68055556e-04  4.14123719e-12  1.66381736e-11  7.32710673e-18  4.43963587e-15  7.45106809e-14 -4.63857081e-16
 8.68802326e-04  8.68802326e-04  4.14480594e-12  1.66525118e-11  7.33341552e-18  4.44345850e-15  7.45748362e-14 -4.64256472e-16
 8.70295868e-04  8.70295868e-04  4.15195819e-12  1.66812472e-11  7.34604617e-18  4.45111165e-15  7.47032796e-14 -4.65056081e-16
 8.73282951e-04  8.73282951e-04  4.16633358e-12  1.67390029e-11  7.37137043e-18  4.46645612e-15  7.49608068e-14 -4.66659285e-16
 8.79257118e-04  8.79257118e-04  4.19537866e-12  1.68556969e-11  7.42228140e-18  4.49730416e-15  7.54785313e-14 -4.69882315e-16
 8.91205452e-04  8.91205452e-04  4.25466445e-12  1.70938883e-11  7.52517870e-18  4.55965242e-15  7.65249259e-14 -4.76396516e-16
 9.15102119e-04  9.15102119e-04  4.37811086e-12  1.75898568e-11  7.73543380e-18  4.68705661e-15  7.86631583e-14 -4.89707822e-16
 9.62895453e-04  9.62895453e-04  4.64519911e-12  1.86629326e-11  8.17506372e-18  4.95349011e-15  8.31347286e-14 -5.17545052e-16
 1.04768735e-03  1.04768735e-03  5.18944038e-12  2.08495216e-11  9.02582448e-18  5.46932736e-15  9.17920595e-14 -5.71440329e-16
 1.13834563e-03  1.13834563e-03  5.87806770e-12  2.36162082e-11  1.00505317e-17  6.09113964e-15  1.02227980e-13 -6.36408212e-16
 1.23912596e-03  1.23912596e-03  6.78390059e-12  2.72555582e-11  1.13536164e-17  6.88268827e-15  1.15512605e-13 -7.19110744e-16
 1.34114058e-03  1.34114058e-03  7.86368728e-12  3.15937991e-11  1.28785376e-17  7.81000595e-15  1.31075861e-13 -8.15999116e-16
 1.45019354e-03  1.45019354e-03  9.21428962e-12  3.70200909e-11  1.47774078e-17  8.96593800e-15  1.50475981e-13 -9.36774172e-16
 1.56260229e-03  1.56260229e-03  1.08356787e-11  4.35343165e-11  1.70734163e-17  1.03649071e-14  1.73955024e-13 -1.08294296e-15
 1.68288020e-03  1.68288020e-03  1.28486093e-11  5.16216296e-11  1.99735174e-17  1.21332098e-14  2.03632639e-13 -1.26770143e-15
 1.80869521e-03  1.80869521e-03  1.52852305e-11  6.14111930e-11  2.35756128e-17  1.43305482e-14  2.40510810e-13 -1.49728747e-15
 1.94333984e-03  1.94333984e-03  1.82961421e-11  7.35080662e-11  2.81763549e-17  1.71375324e-14  2.87620729e-13 -1.79057172e-15
 2.08531523e-03  2.08531523e-03  2.19560067e-11  8.82122168e-11  3.39924489e-17  2.06854695e-14  3.47166126e-13 -2.16127325e-15
 2.23716106e-03  2.23716106e-03  2.64618482e-11  1.06315218e-10  4.14786979e-17  2.52499964e-14  4.23773019e-13 -2.63819080e-15
 2.39805851e-03  2.39805851e-03  3.19518156e-11  1.28372102e-10  5.10571502e-17  3.10853328e-14  5.21707962e-13 -3.24788476e-15
 2.57008431e-03  2.57008431e-03  3.86946998e-11  1.55462772e-10  6.34575639e-17  3.86309694e-14  6.48346903e-13 -4.03627221e-15
 2.75295374e-03  2.75295374e-03  4.69229210e-11  1.88521003e-10  7.94577805e-17  4.83522967e-14  8.11500426e-13 -5.05197480e-15
 2.94845618e-03  2.94845618e-03  5.70143243e-11  2.29064832e-10  1.00262413e-16  6.09691400e-14  1.02324925e-12 -6.37019581e-15
 3.15672642e-03  3.15672642e-03  6.93410390e-11  2.78589323e-10  1.27265951e-16  7.73092324e-14  1.29748500e-12 -8.07740952e-15
 3.37939213e-03  3.37939213e-03  8.44456168e-11  3.39274227e-10  1.62493305e-16  9.85714925e-14  1.65432882e-12 -1.02988670e-14
 3.61693176e-03  3.61693176e-03  1.02907808e-10  4.13448730e-10  2.08409017e-16  1.26205193e-13  2.11810330e-12 -1.31859690e-14
 3.87090799e-03  3.87090799e-03  1.25518218e-10  5.04289131e-10  2.68457823e-16  1.62228396e-13  2.72267671e-12 -1.69495320e-14
 4.14209681e-03  4.14209681e-03  1.53165946e-10  6.15367415e-10  3.46963506e-16  2.09156182e-13  3.51025830e-12 -2.18522846e-14
 4.43207269e-03  4.43207269e-03  1.87014435e-10  7.51357724e-10  4.49833778e-16  2.70407913e-13  4.53823315e-12 -2.82514093e-14
 4.74188468e-03  4.74188468e-03  2.28414515e-10  9.17686995e-10  5.84627497e-16  3.50325692e-13  5.87947158e-12 -3.66004596e-14
 5.07318212e-03  5.07318212e-03  2.79089253e-10  1.12127757e-09  7.61534619e-16  4.54727077e-13  7.63160478e-12 -4.75070887e-14
 5.42727891e-03  5.42727891e-03  3.41079438e-10  1.37032815e-09  9.93752377e-16  5.91085238e-13  9.92004768e-12 -6.17518482e-14
 5.80595380e-03  5.80595380e-03  4.16947365e-10  1.67513244e-09  1.29893342e-15  7.69323233e-13  1.29113279e-11 -8.03711332e-14
 6.21079013e-03  6.21079013e-03  5.09765577e-10  2.04803388e-09  1.70012108e-15  1.00227915e-12  1.68208905e-11 -1.04705729e-13
 6.64374587e-03  6.64374587e-03  6.23354170e-10  2.50437888e-09  2.22800501e-15  1.30690574e-12  2.19332287e-11 -1.36526063e-13
 7.10668894e-03  7.10668894e-03  7.62329300e-10  3.06271155e-09  2.92286033e-15  1.70523250e-12  2.86180271e-11 -1.78132616e-13
 7.60180453e-03  7.60180453e-03  9.32395512e-10  3.74594795e-09  3.83821054e-15  2.22625052e-12  3.73617883e-11 -2.32552674e-13
 8.13126949e-03  8.13126949e-03  1.14047907e-09  4.58191144e-09  5.04456280e-15  2.90773537e-12  4.87984188e-11 -3.03730548e-13
 8.69754480e-03  8.69754480e-03  1.39510720e-09  5.60485583e-09  6.63554338e-15  3.79929572e-12  6.37603813e-11 -3.96845737e-13
 9.30314904e-03  9.30314904e-03  1.70666406e-09  6.85649314e-09  8.73484407e-15  4.96568109e-12  8.33341898e-11 -5.18658026e-13
 9.95087002e-03  9.95087002e-03  2.08790437e-09  8.38805627e-09  1.15067310e-14  6.49181355e-12  1.08944830e-10 -6.78032453e-13
 1.06156173e-02  1.06156173e-02  2.53426276e-09  1.01811960e-08  1.50041260e-14  8.39938945e-12  1.40956219e-10 -8.77230107e-13
 1.12686600e-02  1.12686600e-02  3.03059883e-09  1.21750817e-08  1.91773212e-14  1.06545774e-11  1.78800455e-10 -1.11271378e-12
 1.19111534e-02  1.19111534e-02  3.57826113e-09  1.43751239e-08  2.40945577e-14  1.32880497e-11  2.22992081e-10 -1.38768204e-12
 1.25380026e-02  1.25380026e-02  4.17252293e-09  1.67623279e-08  2.97671109e-14  1.62996693e-11  2.73528615e-10 -1.70211624e-12
 1.31523939e-02  1.31523939e-02  4.81544397e-09  1.93449611e-08  3.62659069e-14  1.97209147e-11  3.30938098e-10 -2.05929855e-12
 1.37559370e-02  1.37559370e-02  5.50816334e-09  2.21275921e-08  4.36562102e-14  2.35796122e-11  3.95687256e-10 -2.46212922e-12
 1.43627996e-02  1.43627996e-02  6.26865103e-09  2.51823962e-08  5.21998257e-14  2.80043579e-11  4.69933678e-10 -2.92402705e-12
 1.50045907e-02  1.50045907e-02  7.14588671e-09  2.87061031e-08  6.25768484e-14  3.33337957e-11  5.59359301e-10 -3.48033270e-12
 1.56654287e-02  1.56654287e-02  8.13103083e-09  3.26631836e-08  7.48506820e-14  3.95829868e-11  6.64216256e-10 -4.13260480e-12
 1.63653229e-02  1.63653229e-02  9.26903488e-09  3.72341684e-08  8.97901535e-14  4.71212110e-11  7.90700017e-10 -4.91937014e-12
 1.70896743e-02  1.70896743e-02  1.05538546e-08  4.23947443e-08  1.07569726e-13  5.60091806e-11  9.39828274e-10 -5.84694303e-12
 1.78526044e-02  1.78526044e-02  1.20300980e-08  4.83240394e-08  1.29111723e-13  6.66743802e-11  1.11877237e-09 -6.95990887e-12
 1.86444088e-02  1.86444088e-02  1.37015638e-08  5.50372568e-08  1.54841166e-13  7.92859681e-11  1.33036884e-09 -8.27588465e-12
 1.94756128e-02  1.94756128e-02  1.56157164e-08  6.27249637e-08  1.85934412e-13  9.43698332e-11  1.58343891e-09 -9.84970014e-12
 2.03401860e-02  2.03401860e-02  1.77877637e-08  7.14481556e-08  2.23179634e-13  1.12245956e-10  1.88334836e-09 -1.17146844e-11
 2.12460744e-02  2.12460744e-02  2.02704809e-08  8.14186797e-08  2.68136551e-13  1.33586253e-10  2.24136648e-09 -1.39408651e-11
 2.21897573e-02  2.21897573e-02  2.30919081e-08  9.27490157e-08  3.22108323e-13  1.58915035e-10  2.66628495e-09 -1.65828459e-11
 2.31769874e-02  2.31769874e-02  2.63117510e-08  1.05678771e-07  3.87198878e-13  1.89104084e-10  3.17272312e-09 -1.97314441e-11
 2.42066186e-02  2.42066186e-02  2.99750466e-08  1.20388600e-07  4.65488795e-13  2.24976254e-10  3.77447735e-09 -2.34723325e-11
 2.52831240e-02  2.52831240e-02  3.41531001e-08  1.37164580e-07  5.59922274e-13  2.67706107e-10  4.49124131e-09 -2.79278118e-11
 2.64064852e-02  2.64064852e-02  3.89091388e-08  1.56260277e-07  6.73655355e-13  3.18507578e-10  5.34336555e-09 -3.32242218e-11
 2.75805427e-02  2.75805427e-02  4.43313888e-08  1.78029544e-07  8.10896417e-13  3.78997787e-10  6.35795913e-09 -3.95298561e-11
 2.88060969e-02  2.88060969e-02  5.05056788e-08  2.02816492e-07  9.76370976e-13  4.50937501e-10  7.56453463e-09 -4.70278756e-11
 3.00866507e-02  3.00866507e-02  5.75431040e-08  2.31066529e-07  1.17616228e-12  5.36576718e-10  9.00080264e-09 -5.59522997e-11
 3.14236461e-02  3.14236461e-02  6.55581677e-08  2.63238571e-07  1.41730262e-12  6.38446266e-10  1.07091740e-08 -6.65662408e-11
 3.28204335e-02  3.28204335e-02  7.46922778e-08  2.99899315e-07  1.70865123e-12  7.59696670e-10  1.27424395e-08 -7.91971617e-11
 3.42789793e-02  3.42789793e-02  8.50966115e-08  3.41654399e-07  2.06064169e-12  9.03945393e-10  1.51612044e-08 -9.42208888e-11
 3.58026127e-02  3.58026127e-02  9.69524216e-08  3.89229833e-07  2.48624586e-12  1.07562186e-09  1.80396679e-08 -1.12097461e-10
 3.73937512e-02  3.73937512e-02  1.10458040e-07  4.43419750e-07  3.00092585e-12  1.27987889e-09  2.14641321e-08 -1.33361793e-10
 3.90558021e-02  3.90558021e-02  1.25846850e-07  5.05158414e-07  3.62375363e-12  1.52296029e-09  2.55391552e-08 -1.58661798e-10
 4.07915913e-02  4.07915913e-02  1.43378026e-07  5.75482924e-07  4.37764327e-12  1.81219016e-09  3.03873610e-08 -1.88757086e-10
 4.26046812e-02  4.26046812e-02  1.63352959e-07  6.55598941e-07  5.29072790e-12  2.15638478e-09  3.61563290e-08 -2.24561593e-10
 4.44982860e-02  4.44982860e-02  1.86109501e-07  7.46857382e-07  6.39698860e-12  2.56594053e-09  4.30200476e-08 -2.67152409e-10
 4.64761859e-02  4.64761859e-02  2.12037606e-07  8.50816884e-07  7.73803934e-12  3.05331965e-09  5.11870317e-08 -3.17819920e-10
 4.85419794e-02  4.85419794e-02  2.41577011e-07  9.69234181e-07  9.36432984e-12  3.63326734e-09  6.09039270e-08 -3.78089861e-10
 5.06997182e-02  5.06997182e-02  2.75232866e-07  1.10412636e-06  1.13375634e-11  4.32341220e-09  7.24655301e-08 -4.49785088e-10
 5.29533931e-02  5.29533931e-02  3.13576970e-07  1.25777528e-06  1.37327430e-11  5.14465677e-09  8.62212768e-08 -5.35065321e-10
 5.53073760e-02  5.53073760e-02  3.57264212e-07  1.43279286e-06  1.66415594e-11  6.12194957e-09  1.02588105e-07 -6.36506265e-10
 5.77660675e-02  5.77660675e-02  4.07037664e-07  1.63214068e-06  2.01756886e-11  7.28491294e-09  1.22060877e-07 -7.57163421e-10
 6.03342056e-02  6.03342056e-02  4.63746763e-07  1.85920184e-06  2.44716580e-11  8.66886622e-09  1.45229401e-07 -9.00676511e-10
 6.30166261e-02  6.30166261e-02  5.28356800e-07  2.11781774e-06  2.96960146e-11  1.03157823e-08  1.72794290e-07 -1.07136644e-09
 6.58184793e-02  6.58184793e-02  6.01969917e-07  2.41237065e-06  3.60524349e-11  1.22756742e-08  2.05589972e-07 -1.27437612e-09
 6.87450679e-02  6.87450679e-02  6.85839797e-07  2.74784055e-06  4.37897018e-11  1.46080106e-08  2.44608132e-07 -1.51581346e-09
 7.18020012e-02  7.18020012e-02  7.81396775e-07  3.12990336e-06  5.32122177e-11  1.73836237e-08  2.91029303e-07 -1.80294409e-09
 7.49950874e-02  7.49950874e-02  8.90268868e-07  3.56501207e-06  6.46922117e-11  2.06867701e-08  3.46256901e-07 -2.14439847e-09
 7.83304444e-02  7.83304444e-02  1.01431262e-06  4.06051644e-06  7.86854117e-11  2.46177839e-08  4.11961047e-07 -2.55043834e-09
 8.18144300e-02  8.18144300e-02  1.15564199e-06  4.62477403e-06  9.57496400e-11  2.92960462e-08  4.90127489e-07 -3.03325336e-09
 8.54537239e-02  8.54537239e-02  1.31666698e-06  5.26729878e-06  1.16568306e-10  3.48637012e-08  5.83118770e-07 -3.60733166e-09
 8.68055556e-02  8.68055556e-02  1.38004175e-06  5.52008012e-06  1.25125407e-10  3.71167179e-08  6.20739377e-07 -3.83950053e-09
 8.71095056e-02  8.71095056e-02  1.39460925e-06  5.57817649e-06  1.27124504e-10  3.76400183e-08  6.29476554e-07 -3.89341338e-09
 8.77174058e-02  8.77174058e-02  1.42398849e-06  5.69533597e-06  1.31183151e-10  3.86998466e-08  6.47171032e-07 -4.00259116e-09
 8.89332062e-02  8.89332062e-02  1.48392943e-06  5.93433400e-06  1.39597086e-10  4.08840603e-08  6.83634144e-07 -4.22754345e-09
 9.06971555e-02  9.06971555e-02  1.57382496e-06  6.29267441e-06  1.52556479e-10  4.42152130e-08  7.39234606e-07 -4.57047944e-09
 9.42250540e-02  9.42250540e-02  1.76439338e-06  7.05194595e-06  1.81370339e-10  5.14906563e-08  8.60630031e-07 -5.31890045e-09
 9.81056803e-02  9.81056803e-02  1.99116580e-06  7.95483250e-06  2.17928877e-10  6.05014540e-08  1.01091129e-06 -6.24483056e-09
 1.02614752e-01  1.02614752e-01  2.27815109e-06  9.09651674e-06  2.67539444e-10  7.24094491e-08  1.20940373e-06 -7.46692106e-09
 1.07135014e-01  1.07135014e-01  2.59223861e-06  1.03448788e-05  3.25863362e-10  8.60311210e-08  1.43632464e-06 -8.86293674e-09
 1.11727753e-01  1.11727753e-01  2.93957484e-06  1.17240676e-05  3.94986728e-10  1.01750013e-07  1.69801814e-06 -1.04715547e-08
 1.16173106e-01  1.16173106e-01  3.30394615e-06  1.31694723e-05  4.72441964e-10  1.18918978e-07  1.98366891e-06 -1.22259774e-08
 1.20512143e-01  1.20512143e-01  3.68737732e-06  1.46889705e-05  5.59147463e-10  1.37680010e-07  2.29560571e-06 -1.41402557e-08
 1.24861694e-01  1.24861694e-01  4.10030237e-06  1.63236745e-05  6.58227169e-10  1.58624668e-07  2.64361778e-06 -1.62741146e-08
 1.29386182e-01  1.29386182e-01  4.56128944e-06  1.81466623e-05  7.75547700e-10  1.82854257e-07  3.04592739e-06 -1.87387061e-08
 1.34022624e-01  1.34022624e-01  5.06813800e-06  2.01486752e-05  9.12370331e-10  2.10456631e-07  3.50389321e-06 -2.15416020e-08
 1.38863108e-01  1.38863108e-01  5.63582334e-06  2.23881828e-05  1.07495368e-09  2.42488750e-07  4.03492538e-06 -2.47884154e-08
 1.43842654e-01  1.43842654e-01  6.26232968e-06  2.48564164e-05  1.26535835e-09  2.79117138e-07  4.64162855e-06 -2.84939159e-08
 1.49022580e-01  1.49022580e-01  6.96140534e-06  2.76065774e-05  1.49085128e-09  3.21464109e-07  5.34240126e-06 -3.27690682e-08
 1.54360468e-01  1.54360468e-01  7.73408365e-06  3.06415858e-05  1.75541633e-09  3.69958943e-07  6.14411251e-06 -3.76540614e-08
 1.59900844e-01  1.59900844e-01  8.59415719e-06  3.40142645e-05  2.06806073e-09  4.25885441e-07  7.06769800e-06 -4.32743706e-08
 1.65618451e-01  1.65618451e-01  9.54592683e-06  3.77398684e-05  2.43541615e-09  4.90004986e-07  8.12537734e-06 -4.97018008e-08
 1.71546067e-01  1.71546067e-01  1.06038663e-05  4.18731457e-05  2.86903432e-09  5.63843961e-07  9.34189415e-06 -5.70835988e-08
 1.77669785e-01  1.77669785e-01  1.17755567e-05  4.64414453e-05  3.37907658e-09  6.48566341e-07  1.07358906e-05 -6.55290718e-08
 1.84014382e-01  1.84014382e-01  1.30768220e-05  5.15037712e-05  3.98074406e-09  7.46044157e-07  1.23375118e-05 -7.52161951e-08
 1.90573710e-01  1.90573710e-01  1.45187399e-05  5.71000179e-05  4.68898393e-09  8.57944943e-07  1.41733488e-05 -8.63001031e-08
 1.97367414e-01  1.97367414e-01  1.61192504e-05  6.32960152e-05  5.52419532e-09  9.86622529e-07  1.62810260e-05 -9.90009894e-08
 2.04394847e-01  2.04394847e-01  1.78933447e-05  7.01452811e-05  6.50789281e-09  1.13438876e-06  1.86971901e-05 -1.13531164e-07
 2.11672553e-01  2.11672553e-01  1.98619461e-05  7.77232337e-05  7.66783496e-09  1.30425796e-06  2.14696285e-05 -1.30167583e-07
 2.19203921e-01  2.19203921e-01  2.20445761e-05  8.60986447e-05  9.03461521e-09  1.49937840e-06  2.46478793e-05 -1.49194736e-07
 2.27003815e-01  2.27003815e-01  2.44661457e-05  9.53595322e-05  1.06463737e-08  1.72366085e-06  2.82933733e-05 -1.70964758e-07
 2.35007847e-01  2.35007847e-01  2.71271587e-05  1.05499346e-04  1.25284929e-08  1.97896587e-06  3.24336983e-05 -1.95624203e-07
 2.42726302e-01  2.42726302e-01  2.98674389e-05  1.15902425e-04  1.45830190e-08  2.25091883e-06  3.68337737e-05 -2.21759660e-07
 2.50254308e-01  2.50254308e-01  3.27098480e-05  1.26653019e-04  1.68340118e-08  2.54210708e-06  4.15341389e-05 -2.49603163e-07
 2.57501646e-01  2.57501646e-01  3.56091262e-05  1.37577815e-04  1.92513102e-08  2.84812296e-06  4.64624207e-05 -2.78717932e-07
 2.64763501e-01  2.64763501e-01  3.86787969e-05  1.49100869e-04  2.19398590e-08  3.18151229e-06  5.18189488e-05 -3.10276049e-07
 2.72243313e-01  2.72243313e-01  4.20173828e-05  1.61583536e-04  2.50101803e-08  3.55452128e-06  5.77972956e-05 -3.45396515e-07
 2.79882882e-01  2.79882882e-01  4.56172082e-05  1.74986293e-04  2.84861028e-08  3.96825903e-06  6.44111868e-05 -3.84132722e-07
 2.87791599e-01  2.87791599e-01  4.95512132e-05  1.89567803e-04  3.24747055e-08  4.43340782e-06  7.18264511e-05 -4.27422773e-07
 2.95890897e-01  2.95890897e-01  5.38041451e-05  2.05256616e-04  3.70026705e-08  4.95076410e-06  8.00499414e-05 -4.75267534e-07
 3.04253642e-01  3.04253642e-01  5.84393579e-05  2.22269504e-04  4.21849879e-08  5.53090998e-06  8.92430110e-05 -5.28559993e-07
 3.12827513e-01  3.12827513e-01  6.34552865e-05  2.40581291e-04  4.80741412e-08  6.17687446e-06  9.94455842e-05 -5.87477760e-07
 3.21666533e-01  3.21666533e-01  6.89127221e-05  2.60391777e-04  5.48028626e-08  6.90006940e-06  1.10828421e-04 -6.52943850e-07
 3.30739085e-01  3.30739085e-01  7.48240991e-05  2.81720662e-04  6.24565580e-08  7.70616954e-06  1.23469647e-04 -7.25333246e-07
 3.40085551e-01  3.40085551e-01  8.12500466e-05  3.04757626e-04  7.11932590e-08  8.60793797e-06  1.37556235e-04 -8.05629265e-07
 3.49687911e-01  3.49687911e-01  8.82156703e-05  3.29559261e-04  8.11378679e-08  9.61395159e-06  1.53206601e-04 -8.94403902e-07
 3.59577050e-01  3.59577050e-01  9.57838098e-05  3.56311060e-04  9.24832266e-08  1.07389417e-05  1.70631575e-04 -9.92731807e-07
 3.69744303e-01  3.69744303e-01  1.03991914e-04  3.85101456e-04  1.05403040e-07  1.19948333e-05  1.89994196e-04 -1.10139000e-06
 3.80214404e-01  3.80214404e-01  1.12907601e-04  4.16117266e-04  1.20137360e-07  1.33991014e-05  2.11538320e-04 -1.22157841e-06
 3.90985439e-01  3.90985439e-01  1.22581116e-04  4.49475429e-04  1.36921401e-07  1.49676778e-05  2.35478169e-04 -1.35429327e-06
 4.02078418e-01  4.02078418e-01  1.33087498e-04  4.85368358e-04  1.56058326e-07  1.67217369e-05  2.62101237e-04 -1.50089370e-06
 4.13496504e-01  4.13496504e-01  1.44490858e-04  5.23938820e-04  1.77861738e-07  1.86821214e-05  2.91681705e-04 -1.66261232e-06
 4.25258719e-01  4.25258719e-01  1.56876461e-04  5.65387660e-04  2.02718328e-07  2.08748991e-05  3.24563050e-04 -1.84099954e-06
 4.37372271e-01  4.37372271e-01  1.70323984e-04  6.09880866e-04  2.31042327e-07  2.33270394e-05  3.61090688e-04 -2.03754211e-06
 4.49855486e-01  4.49855486e-01  1.84932039e-04  6.57629003e-04  2.63330308e-07  2.60710272e-05  4.01678680e-04 -2.25400990e-06
 4.62719048e-01  4.62719048e-01  2.00798292e-04  7.08818172e-04  3.00126338e-07  2.91415885e-05  4.46757932e-04 -2.49215859e-06
 4.75981631e-01  4.75981631e-01  2.18038349e-04  7.63668126e-04  3.42071048e-07  3.25796067e-05  4.96830566e-04 -2.75399800e-06
 4.89657196e-01  4.89657196e-01  2.36771159e-04  8.22380790e-04  3.89876656e-07  3.64297552e-05  5.52430828e-04 -3.04155923e-06
 5.03765683e-01  5.03765683e-01  2.57133749e-04  8.85182189e-04  4.44372335e-07  4.07439382e-05  6.14170040e-04 -3.35709850e-06
 5.18324453e-01  5.18324453e-01  2.79270760e-04  9.52283684e-04  5.06488723e-07  4.55797476e-05  6.82708047e-04 -3.70291171e-06
 5.33355641e-01  5.33355641e-01  3.03346213e-04  1.02391140e-03  5.77301645e-07  5.10036431e-05  7.58791190e-04 -4.08148337e-06
 5.48880447e-01  5.48880447e-01  3.29536359e-04  1.10027636e-03  6.58026227e-07  5.70902166e-05  8.43232690e-04 -4.49533273e-06
 5.64924264e-01  5.64924264e-01  3.58039455e-04  1.18159397e-03  7.50061187e-07  6.39253468e-05  9.36945770e-04 -4.94711262e-06
 5.81512950e-01  5.81512950e-01  3.89071422e-04  1.26805985e-03  8.54993246e-07  7.16063365e-05  1.04093191e-03 -5.43947128e-06
 5.98676509e-01  5.98676509e-01  4.22874501e-04  1.35986100e-03  9.74644597e-07  8.02453352e-05  1.15631107e-03 -5.97510013e-06
 6.16446794e-01  6.16446794e-01  4.59715523e-04  1.45715453e-03  1.11108908e-06  8.99705411e-05  1.28431735e-03 -6.55659285e-06
 6.34860308e-01  6.34860308e-01  4.99894351e-04  1.56007092e-03  1.26670612e-06  1.00930312e-04  1.42632832e-03 -7.18643378e-06
